Freq.	V(n137)	V(n139)
2.00000000000000e+001	(-5.03270767305294e+001dB,1.75521270467044e+002°)	(-5.03271314943971e+001dB,-4.47944134406949e+000°)
2.04658598456151e+001	(-4.98890404641314e+001dB,1.75406668567977e+002°)	(-4.98890952276767e+001dB,-4.59405982628636e+000°)
2.09425709610180e+001	(-4.94491223953039e+001dB,1.75288610359800e+002°)	(-4.94491771587480e+001dB,-4.71213500514297e+000°)
2.14303861047521e+001	(-4.90072247857812e+001dB,1.75166952315457e+002°)	(-4.90072795494452e+001dB,-4.83381041543836e+000°)
2.19295639228637e+001	(-4.85632443483444e+001dB,1.75041542154909e+002°)	(-4.85632991124625e+001dB,-4.95923834522093e+000°)
2.24403690860393e+001	(-4.81170718833711e+001dB,1.74912218128728e+002°)	(-4.81171266480325e+001dB,-5.08858055311925e+000°)
2.29630724299377e+001	(-4.76685918867059e+001dB,1.74778808230110e+002°)	(-4.76686466519305e+001dB,-5.22200905585726e+000°)
2.34979510987906e+001	(-4.72176821261375e+001dB,1.74641129327447e+002°)	(-4.72177368919376e+001dB,-5.35970699505549e+000°)
2.40452886923483e+001	(-4.67642131833544e+001dB,1.74498986209892e+002°)	(-4.67642679497329e+001dB,-5.50186959144080e+000°)
2.46053754162476e+001	(-4.63080479572568e+001dB,1.74352170537071e+002°)	(-4.63081027241341e+001dB,-5.64870519539624e+000°)
2.51785082358833e+001	(-4.58490411235932e+001dB,1.74200459673249e+002°)	(-4.58490958907459e+001dB,-5.80043645353925e+000°)
2.57649910338627e+001	(-4.53870385482136e+001dB,1.74043615375322e+002°)	(-4.53870933153570e+001dB,-5.95730162088992e+000°)
2.63651347711281e+001	(-4.49218766528664e+001dB,1.73881382333554e+002°)	(-4.49219314197992e+001dB,-6.11955601916112e+000°)
2.69792576518331e+001	(-4.44533817252117e+001dB,1.73713486574946e+002°)	(-4.44534364918442e+001dB,-6.28747363281353e+000°)
2.76076852920577e+001	(-4.39813691630429e+001dB,1.73539633689969e+002°)	(-4.39814239293336e+001dB,-6.46134888276320e+000°)
2.82507508924551e+001	(-4.35056426475000e+001dB,1.73359506839877e+002°)	(-4.35056974134094e+001dB,-6.64149861957086e+000°)
2.89087954149185e+001	(-4.30259932389629e+001dB,1.73172764520668e+002°)	(-4.30260480044645e+001dB,-6.82826435963689e+000°)
2.95821677633641e+001	(-4.25421983865104e+001dB,1.72979038055535e+002°)	(-4.25422531516574e+001dB,-7.02201479249675e+000°)
3.02712249687242e+001	(-4.20540208403701e+001dB,1.72777928777464e+002°)	(-4.20540756053461e+001dB,-7.22314859758936e+000°)
3.09763323782496e+001	(-4.15612074555338e+001dB,1.72569004855727e+002°)	(-4.15612622205742e+001dB,-7.43209761770763e+000°)
3.16978638492223e+001	(-4.10634878731602e+001dB,1.72351797712061e+002°)	(-4.10635426384336e+001dB,-7.64933044369581e+000°)
3.24362019471786e+001	(-4.05605730644948e+001dB,1.72125797963099e+002°)	(-4.05606278300873e+001dB,-7.87535647242219e+000°)
3.31917381487512e+001	(-4.00521537198297e+001dB,1.71890450814675e+002°)	(-4.00522084857956e+001dB,-8.11073051210321e+000°)
3.39648730492349e+001	(-3.95378984623828e+001dB,1.71645150821623e+002°)	(-3.95379532287767e+001dB,-8.35605802213041e+000°)
3.47560165749875e+001	(-3.90174518633058e+001dB,1.71389235913128e+002°)	(-3.90175066301663e+001dB,-8.61200108761873e+000°)
3.55655882007784e+001	(-3.84904322286570e+001dB,1.71121980558694e+002°)	(-3.84904869959438e+001dB,-8.87928525373617e+000°)
3.63940171721997e+001	(-3.79564291255704e+001dB,1.70842587898314e+002°)	(-3.79564838931326e+001dB,-9.15870739606965e+000°)
3.72417427332573e+001	(-3.74150006172286e+001dB,1.70550180637983e+002°)	(-3.74150553848830e+001dB,-9.45114482504473e+000°)
3.81092143592649e+001	(-3.68656701672175e+001dB,1.70243790547052e+002°)	(-3.68657249348376e+001dB,-9.75756578783895e+000°)
3.89968919951609e+001	(-3.63079231541791e+001dB,1.69922346312928e+002°)	(-3.63079779216974e+001dB,-1.00790416134792e+001°)
3.99052462993776e+001	(-3.57412029350525e+001dB,1.69584659382942e+002°)	(-3.57412577024210e+001dB,-1.04167608713128e+001°)
4.08347588933906e+001	(-3.51649063911207e+001dB,1.69229407382906e+002°)	(-3.51649611582880e+001dB,-1.07720459527386e+001°)
4.17859226170808e+001	(-3.45783788754433e+001dB,1.68855114633034e+002°)	(-3.45784336423735e+001dB,-1.11463725553719e+001°)
4.27592417900446e+001	(-3.39809084628098e+001dB,1.68460129157491e+002°)	(-3.39809632295395e+001dB,-1.15413926732199e+001°)
4.37552324789910e+001	(-3.33717193844881e+001dB,1.68042595427238e+002°)	(-3.33717741511462e+001dB,-1.19589618534016e+001°)
4.47744227713668e+001	(-3.27499645072618e+001dB,1.67600421880033e+002°)	(-3.27500192739986e+001dB,-1.24011716763205e+001°)
4.58173530553554e+001	(-3.21147166882431e+001dB,1.67131242009010e+002°)	(-3.21147714551652e+001dB,-1.28703886676833e+001°)
4.68845763063984e+001	(-3.14649588026150e+001dB,1.66632367481599e+002°)	(-3.14650135697876e+001dB,-1.33693011796932e+001°)
4.79766583803898e+001	(-3.07995721993629e+001dB,1.66100731317376e+002°)	(-3.07996269668400e+001dB,-1.39009762129439e+001°)
4.90941783137006e+001	(-3.01173232879705e+001dB,1.65532818581021e+002°)	(-3.01173780558086e+001dB,-1.44689287232718e+001°)
5.02377286301916e+001	(-2.94168478932139e+001dB,1.64924581276036e+002°)	(-2.94169026614509e+001dB,-1.50772067280133e+001°)
5.14079156553772e+001	(-2.86966329341193e+001dB,1.64271333046138e+002°)	(-2.86966877027300e+001dB,-1.57304966049031e+001°)
5.26053598379076e+001	(-2.79549948968684e+001dB,1.63567617808086e+002°)	(-2.79550496657631e+001dB,-1.64342544595538e+001°)
5.38306960785383e+001	(-2.71900544689894e+001dB,1.62807044555453e+002°)	(-2.71901092380732e+001dB,-1.71948713214507e+001°)
5.50845740667633e+001	(-2.63997065461417e+001dB,1.61982077889453e+002°)	(-2.63997613153544e+001dB,-1.80198826127419e+001°)
5.63676586252890e+001	(-2.55815846590366e+001dB,1.61083769769047e+002°)	(-2.55816394283448e+001dB,-1.89182363981399e+001°)
5.76806300625321e+001	(-2.47330187215296e+001dB,1.60101412342912e+002°)	(-2.47330734909060e+001dB,-1.99006405531628e+001°)
5.90241845333277e+001	(-2.38509848499325e+001dB,1.59022083693422e+002°)	(-2.38510396193479e+001dB,-2.09800170202869e+001°)
6.03990344080403e+001	(-2.29320459096570e+001dB,1.57830046431533e+002°)	(-2.29321006790969e+001dB,-2.21721032140890e+001°)
6.18059086502718e+001	(-2.19722815366867e+001dB,1.56505941366749e+002°)	(-2.19723363061813e+001dB,-2.34962583510804e+001°)
6.32455532033675e+001	(-2.09672069001483e+001dB,1.55025691808613e+002°)	(-2.09672616697691e+001dB,-2.49765591480602e+001°)
6.47187313859256e+001	(-1.99116809264810e+001dB,1.53358993421680e+002°)	(-1.99117356963005e+001dB,-2.66433099673458e+001°)
6.62262242965182e+001	(-1.87998081580670e+001dB,1.51467202047248e+002°)	(-1.87998629281366e+001dB,-2.85351549953007e+001°)
6.77688312278404e+001	(-1.76248460982608e+001dB,1.49300335307043e+002°)	(-1.76249008686158e+001dB,-3.07020766386350e+001°)
6.93473700905062e+001	(-1.63791465168529e+001dB,1.46792755294725e+002°)	(-1.63792012875245e+001dB,-3.32097128328095e+001°)
7.09626778467150e+001	(-1.50541948301604e+001dB,1.43856877118533e+002°)	(-1.50542496011791e+001dB,-3.61456484993354e+001°)
7.26156109540202e+001	(-1.36408879474499e+001dB,1.40373938549957e+002°)	(-1.36409427188366e+001dB,-3.96286458971308e+001°)
7.43070458194344e+001	(-1.21303538127843e+001dB,1.36180525028890e+002°)	(-1.21304085845387e+001dB,-4.38221196174949e+001°)
7.60378792641121e+001	(-1.05159581555146e+001dB,1.31049510361523e+002°)	(-1.05160129276223e+001dB,-4.89531958862729e+001°)
7.78090289988560e+001	(-8.79782584133608e+000dB,1.24665665393840e+002°)	(-8.79788061378697e+000dB,-5.53371038902675e+001°)
7.96214341106993e+001	(-6.99235451046513e+000dB,1.16603666715047e+002°)	(-6.99240928326040e+000dB,-6.33991670737466e+001°)
8.14760555608224e+001	(-5.15011771462404e+000dB,1.06340549351133e+002°)	(-5.15017248777378e+000dB,-7.36623504449199e+001°)
8.33738766940670e+001	(-3.38154682186717e+000dB,9.33897740501540e+001°)	(-3.38160159538650e+000dB,-8.66131932907157e+001°)
8.53159037603184e+001	(-1.86783012313684e+000dB,7.76816393646399e+001°)	(-1.86788489704338e+000dB,-1.02321397094400e+002°)
8.73031664480331e+001	(-7.98430840773311e-001dB,6.00621788665077e+001°)	(-7.98485615086145e-001dB,-1.19940928320694e+002°)
8.93367184301925e+001	(-2.29060332659811e-001dB,4.21606870062672e+001°)	(-2.29115107398989e-001dB,-1.37842492556579e+002°)
9.14176379229749e+001	(-2.67635120943674e-002dB,2.52997908305975e+001°)	(-2.68182872807581e-002dB,-1.54703462793747e+002°)
9.35470282574395e+001	(7.64174815813650e-003dB,9.70563815355471e+000°)	(7.58697250284821e-003dB,-1.70297691257405e+002°)
9.57260184645275e+001	(6.14620883606543e-003dB,-5.26482531261803e+000°)	(6.09143268930279e-003dB,1.74731767724511e+002°)
9.79557638736891e+001	(-1.31139142032308e-002dB,-2.05686992507074e+001°)	(-1.31686908648600e-002dB,1.59427814428099e+002°)
1.00237446725454e+002	(-1.48938427957650e-001dB,-3.69982671429479e+001°)	(-1.48993205158414e-001dB,1.42998165329053e+002°)
1.02572276798273e+002	(-5.89121768640533e-001dB,-5.46474139717328e+001°)	(-5.89176546405353e-001dB,1.25348935401929e+002°)
1.04961492049954e+002	(-1.50329931420859e+000dB,-7.25016367551734e+001°)	(-1.50335409256288e+000dB,1.07494627584566e+002°)
1.07406359274050e+002	(-2.89686887606999e+000dB,-8.89017624867481e+001°)	(-2.89692365503890e+000dB,9.10944148384117e+001°)
1.09908174771525e+002	(-4.60691108301325e+000dB,-1.02701945894491e+002°)	(-4.60696586262022e+000dB,7.72941423893155e+001°)
1.12468265038070e+002	(-6.43924863319016e+000dB,-1.13734151612716e+002°)	(-6.43930341345390e+000dB,6.62618455557708e+001°)
1.15087987467431e+002	(-8.26146035852074e+000dB,-1.22407076259568e+002°)	(-8.26151513944984e+000dB,5.75888276713340e+001°)
1.17768731071118e+002	(-1.00075630110961e+001dB,-1.29252924958062e+002°)	(-1.00076177926814e+001dB,5.07428835635136e+001°)
1.20511917214871e+002	(-1.16529902833840e+001dB,-1.34729677825243e+002°)	(-1.16530450655965e+001dB,4.52660330645039e+001°)
1.23319000372296e+002	(-1.31938697248095e+001dB,-1.39183599980136e+002°)	(-1.31939245076221e+001dB,4.08120110031723e+001°)
1.26191468896038e+002	(-1.46353340248745e+001dB,-1.42865577591785e+002°)	(-1.46353888083112e+001dB,3.71299311571976e+001°)
1.29130845806931e+002	(-1.59858037916145e+001dB,-1.45956008922719e+002°)	(-1.59858585757699e+001dB,3.40393952098846e+001°)
1.32138689601519e+002	(-1.72543925093253e+001dB,-1.48585565336821e+002°)	(-1.72544472943299e+001dB,3.14097317421275e+001°)
1.35216595078396e+002	(-1.84498104978849e+001dB,-1.50850192278382e+002°)	(-1.84498652838826e+001dB,2.91449952529997e+001°)
1.38366194183787e+002	(-1.95799607359978e+001dB,-1.52821456428063e+002°)	(-1.95800155231693e+001dB,2.71736190037774e+001°)
1.41589156876827e+002	(-2.06518438707275e+001dB,-1.54553602981342e+002°)	(-2.06518986593336e+001dB,2.54413577397691e+001°)
1.44887192014998e+002	(-2.16715942585787e+001dB,-1.56088387595839e+002°)	(-2.16716490489640e+001dB,2.39064557434145e+001°)
1.48262048260183e+002	(-2.26445650907514e+001dB,-1.57458420083635e+002°)	(-2.26446198832156e+001dB,2.25363031419364e+001°)
1.51715515005836e+002	(-2.35754256951425e+001dB,-1.58689510236980e+002°)	(-2.35754804897306e+001dB,2.13050900803796e+001°)
1.55249423325738e+002	(-2.44682552931295e+001dB,-1.59802338476276e+002°)	(-2.44683100896221e+001dB,2.01921360725383e+001°)
1.58865646944856e+002	(-2.53266272920441e+001dB,-1.60813662958640e+002°)	(-2.53266820901405e+001dB,1.91806828934498e+001°)
1.62566103232819e+002	(-2.61536824468606e+001dB,-1.61737203722878e+002°)	(-2.61537372462571e+001dB,1.82570104356093e+001°)
1.66352754220534e+002	(-2.69521912028333e+001dB,-1.62584299433440e+002°)	(-2.69522460031265e+001dB,1.74097799647098e+001°)
1.70227607640475e+002	(-2.77246063976790e+001dB,-1.63364401777449e+002°)	(-2.77246611982169e+001dB,1.66295397213798e+001°)
1.74192717991216e+002	(-2.84731076775802e+001dB,-1.64085452124183e+002°)	(-2.84731624774800e+001dB,1.59083482602235e+001°)
1.78250187626749e+002	(-2.91996389065710e+001dB,-1.64754171677762e+002°)	(-2.91996937051828e+001dB,1.52394842975126e+001°)
1.82402167871181e+002	(-2.99059397082221e+001dB,-1.65376287333797e+002°)	(-2.99059945057366e+001dB,1.46172208587553e+001°)
1.86650860159398e+002	(-3.05935721190361e+001dB,-1.65956709218745e+002°)	(-3.05936269163818e+001dB,1.40366477416487e+001°)
1.90998517204287e+002	(-3.12639431779478e+001dB,-1.66499671537027e+002°)	(-3.12639979762284e+001dB,1.34935306649524e+001°)
1.95447444191162e+002	(-3.19183241386379e+001dB,-1.67008845277193e+002°)	(-3.19183789389704e+001dB,1.29841985592227e+001°)
1.99999999999999e+002	(-3.25578668758619e+001dB,-1.67487429116515e+002°)	(-3.25579216796821e+001dB,1.25054526634587e+001°)
2.04658598456150e+002	(-3.31836179589065e+001dB,-1.67938223193284e+002°)	(-3.31836727683500e+001dB,1.20544927563168e+001°)
2.09425709610179e+002	(-3.37965307548286e+001dB,-1.68363689114750e+002°)	(-3.37965855725164e+001dB,1.16288571517057e+001°)
2.14303861047521e+002	(-3.43974757833001e+001dB,-1.68765999036810e+002°)	(-3.43975306109159e+001dB,1.12263736160573e+001°)
2.19295639228636e+002	(-3.49872495719958e+001dB,-1.69147077099978e+002°)	(-3.49873044089268e+001dB,1.08451179202723e+001°)
2.24403690860392e+002	(-3.55665824883089e+001dB,-1.69508635054516e+002°)	(-3.55666373323278e+001dB,1.04833782119513e+001°)
2.29630724299376e+002	(-3.61361457463725e+001dB,-1.69852201355538e+002°)	(-3.61362005950187e+001dB,1.01396259318447e+001°)
2.34979510987905e+002	(-3.66965574610800e+001dB,-1.70179144700384e+002°)	(-3.66966123118000e+001dB,9.81249228197792e+000°)
2.40452886923482e+002	(-3.72483878631934e+001dB,-1.70490694098279e+002°)	(-3.72484427124444e+001dB,9.50074815108420e+000°)
2.46053754162476e+002	(-3.77921638848197e+001dB,-1.70787956260755e+002°)	(-3.77922187272795e+001dB,9.20328671444231e+000°)
2.51785082358833e+002	(-3.83283732270107e+001dB,-1.71071930550620e+002°)	(-3.83284280567736e+001dB,8.91910847799885e+000°)
2.57649910338626e+002	(-3.88574679725185e+001dB,-1.71343521796022e+002°)	(-3.88575227870232e+001dB,8.64730847852259e+000°)
2.63651347711281e+002	(-3.93798677977892e+001dB,-1.71603551305687e+002°)	(-3.93799226000184e+001dB,8.38706529664966e+000°)
2.69792576518330e+002	(-3.98959628343064e+001dB,-1.71852766381806e+002°)	(-3.98960176301493e+001dB,8.13763153837304e+000°)
2.76076852920576e+002	(-4.04061162248084e+001dB,-1.72091848576841e+002°)	(-4.04061710203419e+001dB,7.89832555043778e+000°)
2.82507508924550e+002	(-4.09106664165718e+001dB,-1.72321420891311e+002°)	(-4.09107212184953e+001dB,7.66852421684498e+000°)
2.89087954149185e+002	(-4.14099292321110e+001dB,-1.72542054034035e+002°)	(-4.14099840500068e+001dB,7.44765671370759e+000°)
2.95821677633641e+002	(-4.19041997449697e+001dB,-1.72754271724462e+002°)	(-4.19042545923362e+001dB,7.23519922996798e+000°)
3.02712249687241e+002	(-4.23937539356397e+001dB,-1.72958555005352e+002°)	(-4.23938088252214e+001dB,7.03067066160702e+000°)
3.09763323782495e+002	(-4.28788500821920e+001dB,-1.73155346226924e+002°)	(-4.28789050166976e+001dB,6.83362857910034e+000°)
3.16978638492222e+002	(-4.33597300355100e+001dB,-1.73345053583450e+002°)	(-4.33597850055796e+001dB,6.64366463934689e+000°)
3.24362019471785e+002	(-4.38366205507375e+001dB,-1.73528055136544e+002°)	(-4.38366755415726e+001dB,6.46040059875355e+000°)
3.31917381487511e+002	(-4.43097345108650e+001dB,-1.73704701404497e+002°)	(-4.43097895052578e+001dB,6.28348577232693e+000°)
3.39648730492348e+002	(-4.47792719415399e+001dB,-1.73875317479888e+002°)	(-4.47793269164964e+001dB,6.11259489749844e+000°)
3.47560165749874e+002	(-4.52454209054926e+001dB,-1.74040205216675e+002°)	(-4.52454758312430e+001dB,5.94742589060373e+000°)
3.55655882007783e+002	(-4.57083583317828e+001dB,-1.74199645336046e+002°)	(-4.57084131849346e+001dB,5.78769774113961e+000°)
3.63940171721995e+002	(-4.61682507856175e+001dB,-1.74353899329463e+002°)	(-4.61683055673920e+001dB,5.63314874376429e+000°)
3.72417427332572e+002	(-4.66252551779294e+001dB,-1.74503211154072e+002°)	(-4.66253099091879e+001dB,5.48353487318581e+000°)
3.81092143592648e+002	(-4.70795194174033e+001dB,-1.74647808750934e+002°)	(-4.70795741197871e+001dB,5.33862813629373e+000°)
3.89968919951608e+002	(-4.75311830098849e+001dB,-1.74787905419867e+002°)	(-4.75312376983153e+001dB,5.19821510561830e+000°)
3.99052462993775e+002	(-4.79803776117785e+001dB,-1.74923701084230e+002°)	(-4.79804322980481e+001dB,5.06209567018687e+000°)
4.08347588933904e+002	(-4.84272275477583e+001dB,-1.75055383472919e+002°)	(-4.84272822484039e+001dB,4.93008189122480e+000°)
4.17859226170806e+002	(-4.88718503104481e+001dB,-1.75183129194777e+002°)	(-4.88719050568567e+001dB,4.80199697165740e+000°)
4.27592417900445e+002	(-4.93143570571461e+001dB,-1.75307104486469e+002°)	(-4.93144119033606e+001dB,4.67767458524313e+000°)
4.37552324789909e+002	(-4.97548530478937e+001dB,-1.75427465215131e+002°)	(-4.97549080593797e+001dB,4.55695894428704e+000°)
4.47744227713666e+002	(-5.01934378579200e+001dB,-1.75544356654133e+002°)	(-5.01934930705633e+001dB,4.43970489245798e+000°)
4.58173530553553e+002	(-5.06302054622900e+001dB,-1.75657915126731e+002°)	(-5.06302608547622e+001dB,4.32577595407013e+000°)
4.68845763063983e+002	(-5.10652446420657e+001dB,-1.75768270686750e+002°)	(-5.10653001599735e+001dB,4.21504167405182e+000°)
4.79766583803896e+002	(-5.14986395567589e+001dB,-1.75875547664285e+002°)	(-5.14986951429724e+001dB,4.10737736512377e+000°)
4.90941783137004e+002	(-5.19304700834617e+001dB,-1.75979864028854e+002°)	(-5.19305256763264e+001dB,4.00266483392632e+000°)
5.02377286301914e+002	(-5.23608120056375e+001dB,-1.76081331340356e+002°)	(-5.23608675145352e+001dB,3.90079229459025e+000°)
5.14079156553771e+002	(-5.27897371997527e+001dB,-1.76180055188308e+002°)	(-5.27897924856301e+001dB,3.80165368412384e+000°)
5.26053598379074e+002	(-5.32173138386034e+001dB,-1.76276135704140e+002°)	(-5.32173687479932e+001dB,3.70514799215422e+000°)
5.38306960785381e+002	(-5.36436065946926e+001dB,-1.76369668019306e+002°)	(-5.36436610593767e+001dB,3.61117920669700e+000°)
5.50845740667631e+002	(-5.40686768341795e+001dB,-1.76460742677530e+002°)	(-5.40687309176620e+001dB,3.51965657808818e+000°)
5.63676586252888e+002	(-5.44925828004916e+001dB,-1.76549446039301e+002°)	(-5.44926366308504e+001dB,3.43049400309323e+000°)
5.76806300625319e+002	(-5.49153797946510e+001dB,-1.76635860719803e+002°)	(-5.49154335049576e+001dB,3.34360894199285e+000°)
5.90241845333275e+002	(-5.53371203729343e+001dB,-1.76720066059746e+002°)	(-5.53371741158181e+001dB,3.25892185576864e+000°)
6.03990344080401e+002	(-5.57578545963380e+001dB,-1.76802138393984e+002°)	(-5.57579085981304e+001dB,3.17635631396907e+000°)
6.18059086502716e+002	(-5.61776303074517e+001dB,-1.76882150338037e+002°)	(-5.61776848851439e+001dB,3.09584025273780e+000°)
6.32455532033673e+002	(-5.65964931660162e+001dB,-1.76960168745300e+002°)	(-5.65965486032672e+001dB,3.01730806542749e+000°)
6.47187313859254e+002	(-5.70144862347486e+001dB,-1.77036254572381e+002°)	(-5.70145425795471e+001dB,2.94069948605964e+000°)
6.62262242965179e+002	(-5.74316498648514e+001dB,-1.77110467132319e+002°)	(-5.74317069251301e+001dB,2.86595438159168e+000°)
6.77688312278402e+002	(-5.78480223227332e+001dB,-1.77182866602338e+002°)	(-5.78480798338417e+001dB,2.79301128225938e+000°)
6.93473700905060e+002	(-5.82636402603635e+001dB,-1.77253512273024e+002°)	(-5.82636979610496e+001dB,2.72181019394278e+000°)
7.09626778467148e+002	(-5.86785387470151e+001dB,-1.77322460878260e+002°)	(-5.86785963127263e+001dB,2.65229410054683e+000°)
7.26156109540200e+002	(-5.90927512229661e+001dB,-1.77389766371164e+002°)	(-5.90928081486602e+001dB,2.58440828972473e+000°)
7.43070458194342e+002	(-5.95063095191795e+001dB,-1.77455480237041e+002°)	(-5.95063651218789e+001dB,2.51809894716795e+000°)
7.60378792641119e+002	(-5.99192439203895e+001dB,-1.77519651808590e+002°)	(-5.99192976589837e+001dB,2.45331317986759e+000°)
7.78090289988558e+002	(-6.03315832409266e+001dB,-1.77582328492688e+002°)	(-6.03316351084947e+001dB,2.39000173201330e+000°)
7.96214341106991e+002	(-6.07433549003774e+001dB,-1.77643555935212e+002°)	(-6.07434053406373e+001dB,2.32812010438569e+000°)
