Freq.	V(n121)	V(n123)
2.00000000000000e+001	(-6.33920886968791e+001dB,1.77887315073908e+002°)	(-6.33921434529808e+001dB,-2.11339672415212e+000°)
2.04658598456151e+001	(-6.29833035646776e+001dB,1.77836988270888e+002°)	(-6.29833583192985e+001dB,-2.16374012071654e+000°)
2.09425709610180e+001	(-6.25740996447574e+001dB,1.77785408094936e+002°)	(-6.25741543989257e+001dB,-2.21533728226216e+000°)
2.14303861047521e+001	(-6.21644567357717e+001dB,1.77732539389581e+002°)	(-6.21645114909466e+001dB,-2.26822336843314e+000°)
2.19295639228637e+001	(-6.17543536386836e+001dB,1.77678345732675e+002°)	(-6.17544083959075e+001dB,-2.32243480527882e+000°)
2.24403690860393e+001	(-6.13437681052633e+001dB,1.77622789372091e+002°)	(-6.13438228649205e+001dB,-2.37800935342507e+000°)
2.29630724299377e+001	(-6.09326767837863e+001dB,1.77565831157158e+002°)	(-6.09327315459440e+001dB,-2.43498617450745e+000°)
2.34979510987906e+001	(-6.05210551618074e+001dB,1.77507430466065e+002°)	(-6.05211099265190e+001dB,-2.49340590081029e+000°)
2.40452886923483e+001	(-6.01088775057940e+001dB,1.77447545130771e+002°)	(-6.01089322730386e+001dB,-2.55331070944326e+000°)
2.46053754162476e+001	(-5.96961167967557e+001dB,1.77386131361226e+002°)	(-5.96961715661283e+001dB,-2.61474439939720e+000°)
2.51785082358833e+001	(-5.92827446604655e+001dB,1.77323143661035e+002°)	(-5.92827994308864e+001dB,-2.67775247917528e+000°)
2.57649910338627e+001	(-5.88687312936986e+001dB,1.77258534717842e+002°)	(-5.88687860638205e+001dB,-2.74238227722243e+000°)
2.63651347711281e+001	(-5.84540453900129e+001dB,1.77192255283088e+002°)	(-5.84541001589010e+001dB,-2.80868305734495e+000°)
2.69792576518331e+001	(-5.80386540619723e+001dB,1.77124254069213e+002°)	(-5.80387088292136e+001dB,-2.87670611898968e+000°)
2.76076852920577e+001	(-5.76225227556959e+001dB,1.77054477646067e+002°)	(-5.76225775210953e+001dB,-2.94650490290133e+000°)
2.82507508924551e+001	(-5.72056151592001e+001dB,1.76982870318029e+002°)	(-5.72056699225676e+001dB,-3.01813511643359e+000°)
2.89087954149185e+001	(-5.67878931058011e+001dB,1.76909373986113e+002°)	(-5.67879478670177e+001dB,-3.09165487204278e+000°)
2.95821677633641e+001	(-5.63693164720937e+001dB,1.76833927999710e+002°)	(-5.63693712314483e+001dB,-3.16712483425138e+000°)
3.02712249687242e+001	(-5.59498430697680e+001dB,1.76756468997923e+002°)	(-5.59498978281898e+001dB,-3.24460837508666e+000°)
3.09763323782496e+001	(-5.55294285306802e+001dB,1.76676930739060e+002°)	(-5.55294832893289e+001dB,-3.32417174455699e+000°)
3.16978638492223e+001	(-5.51080261846722e+001dB,1.76595243916716e+002°)	(-5.51080809443601e+001dB,-3.40588425887666e+000°)
3.24362019471786e+001	(-5.46855869296620e+001dB,1.76511335960964e+002°)	(-5.46856416908031e+001dB,-3.48981850111565e+000°)
3.31917381487512e+001	(-5.42620590935443e+001dB,1.76425130823606e+002°)	(-5.42621138563994e+001dB,-3.57605053396371e+000°)
3.39648730492349e+001	(-5.38373882874227e+001dB,1.76336548747934e+002°)	(-5.38374430522566e+001dB,-3.66466012812228e+000°)
3.47560165749875e+001	(-5.34115172491187e+001dB,1.76245506026599e+002°)	(-5.34115720161035e+001dB,-3.75573100396251e+000°)
3.55655882007784e+001	(-5.29843856741706e+001dB,1.76151914746210e+002°)	(-5.29844404430427e+001dB,-3.84935108848609e+000°)
3.63940171721997e+001	(-5.25559300322515e+001dB,1.76055682490669e+002°)	(-5.25559848021623e+001dB,-3.94561281482473e+000°)
3.72417427332573e+001	(-5.21260833744384e+001dB,1.75956711983104e+002°)	(-5.21261381443876e+001dB,-4.04461347973917e+000°)
3.81092143592649e+001	(-5.16947751338590e+001dB,1.75854900719237e+002°)	(-5.16948299031593e+001dB,-4.14645560623853e+000°)
3.89968919951609e+001	(-5.12619309098775e+001dB,1.75750140610738e+002°)	(-5.12619856781489e+001dB,-4.25124729929485e+000°)
3.99052462993776e+001	(-5.08274722321406e+001dB,1.75642317589761e+002°)	(-5.08275269990909e+001dB,-4.35910264317001e+000°)
4.08347588933906e+001	(-5.03913163072712e+001dB,1.75531311158822e+002°)	(-5.03913710725824e+001dB,-4.47014215302911e+000°)
4.17859226170808e+001	(-4.99533757481111e+001dB,1.75416993893900e+002°)	(-4.99534305115702e+001dB,-4.58449327221204e+000°)
4.27592417900446e+001	(-4.95135582834065e+001dB,1.75299230901999e+002°)	(-4.95136130452491e+001dB,-4.70229091294900e+000°)
4.37552324789910e+001	(-4.90717664457216e+001dB,1.75177879228308e+002°)	(-4.90718212067298e+001dB,-4.82367804653803e+000°)
4.47744227713668e+001	(-4.86278972354533e+001dB,1.75052787206475e+002°)	(-4.86279519965191e+001dB,-4.94880635429743e+000°)
4.58173530553554e+001	(-4.81818417587512e+001dB,1.74923793744736e+002°)	(-4.81818965204947e+001dB,-5.07783694498083e+000°)
4.68845763063984e+001	(-4.77334848370421e+001dB,1.74790727540319e+002°)	(-4.77335395998487e+001dB,-5.21094114078842e+000°)
4.79766583803898e+001	(-4.72827045857623e+001dB,1.74653406215328e+002°)	(-4.72827593499710e+001dB,-5.34830133985657e+000°)
4.90941783137006e+001	(-4.68293719593980e+001dB,1.74511635371689e+002°)	(-4.68294267253680e+001dB,-5.49011196001763e+000°)
5.02377286301916e+001	(-4.63733502573966e+001dB,1.74365207566002e+002°)	(-4.63734050253409e+001dB,-5.63658046390186e+000°)
5.14079156553772e+001	(-4.59144945819696e+001dB,1.74213901173723e+002°)	(-4.59145493516273e+001dB,-5.78792849676096e+000°)
5.26053598379076e+001	(-4.54526512468944e+001dB,1.74057479061389e+002°)	(-4.54527060175415e+001dB,-5.94439321633487e+000°)
5.38306960785383e+001	(-4.49876571476825e+001dB,1.73895687080557e+002°)	(-4.49877119185722e+001dB,-6.10622879700655e+000°)
5.50845740667633e+001	(-4.45193390818730e+001dB,1.73728252479279e+002°)	(-4.45193938525035e+001dB,-6.27370801546483e+000°)
5.63676586252890e+001	(-4.40475129980548e+001dB,1.73554882172370e+002°)	(-4.40475677680914e+001dB,-6.44712398062013e+000°)
5.76806300625321e+001	(-4.35719831702393e+001dB,1.73375260775658e+002°)	(-4.35720379393538e+001dB,-6.62679210087738e+000°)
5.90241845333277e+001	(-4.30925412957483e+001dB,1.73189048382409e+002°)	(-4.30925960635768e+001dB,-6.81305230875946e+000°)
6.03990344080403e+001	(-4.26089655081078e+001dB,1.72995878066964e+002°)	(-4.26090202744448e+001dB,-7.00627155719152e+000°)
6.18059086502718e+001	(-4.21210192938363e+001dB,1.72795353081568e+002°)	(-4.21210740589413e+001dB,-7.20684662058554e+000°)
6.32455532033675e+001	(-4.16284503010352e+001dB,1.72587043700220e+002°)	(-4.16285050655751e+001dB,-7.41520724932356e+000°)
6.47187313859256e+001	(-4.11309890263992e+001dB,1.72370483654741e+002°)	(-4.11310437910419e+001dB,-7.63181973585086e+000°)
6.62262242965182e+001	(-4.06283473655983e+001dB,1.72145166099151e+002°)	(-4.06284021308094e+001dB,-7.85719095264483e+000°)
6.77688312278404e+001	(-4.01202170100778e+001dB,1.71910539028615e+002°)	(-4.01202717762042e+001dB,-8.09187293288861e+000°)
6.93473700905062e+001	(-3.96062676709990e+001dB,1.71666000072264e+002°)	(-3.96063224383995e+001dB,-8.33646807633824e+000°)
7.09626778467150e+001	(-3.90861451062502e+001dB,1.71410890577862e+002°)	(-3.90861998752968e+001dB,-8.59163506381479e+000°)
7.26156109540202e+001	(-3.85594689156853e+001dB,1.71144488875817e+002°)	(-3.85595236865418e+001dB,-8.85809559365724e+000°)
7.43070458194344e+001	(-3.80258300657079e+001dB,1.70866002477992e+002°)	(-3.80258848380930e+001dB,-9.13664218507894e+000°)
7.60378792641121e+001	(-3.74847881292856e+001dB,1.70574558935503e+002°)	(-3.74848429026265e+001dB,-9.42814732115924e+000°)
7.78090289988560e+001	(-3.69358682174287e+001dB,1.70269195333311e+002°)	(-3.69359229912133e+001dB,-9.73357395188188e+000°)
7.96214341106993e+001	(-3.63785575215694e+001dB,1.69948846273949e+002°)	(-3.63786122954544e+001dB,-1.00539875089435e+001°)
8.14760555608224e+001	(-3.58123013944771e+001dB,1.69612329871132e+002°)	(-3.58123561681921e+001dB,-1.03905699128365e+001°)
8.33738766940670e+001	(-3.52364989139755e+001dB,1.69258331295818e+002°)	(-3.52365536872182e+001dB,-1.07446360278879e+001°)
8.53159037603184e+001	(-3.46504978533597e+001dB,1.68885383423835e+002°)	(-3.46505526258194e+001dB,-1.11176530152949e+001°)
8.73031664480331e+001	(-3.40535889596753e+001dB,1.68491844003173e+002°)	(-3.40536437312531e+001dB,-1.15112631652430e+001°)
8.93367184301925e+001	(-3.34449994218680e+001dB,1.68075868589520e+002°)	(-3.34450541928570e+001dB,-1.19273109594108e+001°)
9.14176379229749e+001	(-3.28238853887626e+001dB,1.67635378300372e+002°)	(-3.28239401596720e+001dB,-1.23678753166534e+001°)
9.35470282574395e+001	(-3.21893233694291e+001dB,1.67168021187202e+002°)	(-3.21893781407026e+001dB,-1.28353082229870e+001°)
9.57260184645275e+001	(-3.15403003148504e+001dB,1.66671125699019e+002°)	(-3.15403550868050e+001dB,-1.33322812690158e+001°)
9.79557638736891e+001	(-3.08757021387379e+001dB,1.66141644286033e+002°)	(-3.08757569116481e+001dB,-1.38618420455993e+001°)
1.00237446725454e+002	(-3.01943003835359e+001dB,1.65576084643078e+002°)	(-3.01943551577060e+001dB,-1.44274828995930e+001°)
1.02572276798273e+002	(-2.94947366658936e+001dB,1.64970425351751e+002°)	(-2.94947914416048e+001dB,-1.50332252913353e+001°)
1.04961492049954e+002	(-2.87755044429668e+001dB,1.64320011531535e+002°)	(-2.87755592202851e+001dB,-1.56837241443698e+001°)
1.07406359274050e+002	(-2.80349275771996e+001dB,1.63619424459970e+002°)	(-2.80349823558929e+001dB,-1.63843982267819e+001°)
1.09908174771525e+002	(-2.72711351187438e+001dB,1.62862317509049e+002°)	(-2.72711898984728e+001dB,-1.71415942143918e+001°)
1.12468265038070e+002	(-2.64820315131000e+001dB,1.62041208412537e+002°)	(-2.64820862936061e+001dB,-1.79627944217981e+001°)
1.15087987467431e+002	(-2.56652612386003e+001dB,1.61147213438944e+002°)	(-2.56653160197182e+001dB,-1.88568826290835e+001°)
1.17768731071118e+002	(-2.48181667839848e+001dB,1.60169703312989e+002°)	(-2.48182215655743e+001dB,-1.98344881609597e+001°)
1.20511917214871e+002	(-2.39377387375707e+001dB,1.59095852991959e+002°)	(-2.39377935194696e+001dB,-2.09084361110249e+001°)
1.23319000372296e+002	(-2.30205566474499e+001dB,1.57910045689741e+002°)	(-2.30206114295221e+001dB,-2.20943433179597e+001°)
1.26191468896038e+002	(-2.20627193909560e+001dB,1.56593073981783e+002°)	(-2.20627741732260e+001dB,-2.34114172599217e+001°)
1.29130845806931e+002	(-2.10597642945328e+001dB,1.55121054425427e+002°)	(-2.10598190772212e+001dB,-2.48835414332902e+001°)
1.32138689601519e+002	(-2.00065756653094e+001dB,1.53463931931363e+002°)	(-2.00066304486937e+001dB,-2.65407709817244e+001°)
1.35216595078396e+002	(-1.88972867759572e+001dB,1.51583388286889e+002°)	(-1.88973415602592e+001dB,-2.84214241739819e+001°)
1.38366194183787e+002	(-1.77251868735748e+001dB,1.49429873657329e+002°)	(-1.77252416589583e+001dB,-3.05750509026513e+001°)
1.41589156876827e+002	(-1.64826610923350e+001dB,1.46938332884295e+002°)	(-1.64827158789461e+001dB,-3.30667063855503e+001°)
1.44887192014998e+002	(-1.51612261267190e+001dB,1.44021977828377e+002°)	(-1.51612809147077e+001dB,-3.59831788227415e+001°)
1.48262048260183e+002	(-1.37517993919982e+001dB,1.40563149118504e+002°)	(-1.37518541814887e+001dB,-3.94421276471664e+001°)
1.51715515005836e+002	(-1.22454993506611e+001dB,1.36399967300217e+002°)	(-1.22455541416934e+001dB,-4.36054323768066e+001°)
1.55249423325738e+002	(-1.06356113789423e+001dB,1.31307421428235e+002°)	(-1.06356661714813e+001dB,-4.86981040224742e+001°)
1.58865646944856e+002	(-8.92202589744023e+000dB,1.24973063375487e+002°)	(-8.92208069144676e+000dB,-5.50325907784483e+001°)
1.62566103232819e+002	(-7.12059819267006e+000dB,1.16974723996192e+002°)	(-7.12065298814229e+000dB,-6.30310618590266e+001°)
1.66352754220534e+002	(-5.28083743405765e+000dB,1.06791413848327e+002°)	(-5.28089223102932e+000dB,-7.32145067761150e+001°)
1.70227607640475e+002	(-3.51156333261419e+000dB,9.39331164850621e+001°)	(-3.51161813114142e+000dB,-8.60729420479672e+001°)
1.74192717991216e+002	(-1.99276981937686e+000dB,7.83154466079462e+001°)	(-1.99282461952846e+000dB,-1.01690753046107e+002°)
1.78250187626749e+002	(-9.15424078243645e-001dB,6.07635288333042e+001°)	(-9.15478880095991e-001dB,-1.19242815228993e+002°)
1.82402167871181e+002	(-3.39627104101718e-001dB,4.29045036396368e+001°)	(-3.39681907736364e-001dB,-1.37101988194662e+002°)
1.86650860159398e+002	(-1.35186016137239e-001dB,2.60882387107056e+001°)	(-1.35240821640101e-001dB,-1.53918404337682e+002°)
1.90998517204287e+002	(-1.01216669157773e-001dB,1.05733872951477e+001°)	(-1.01271476618789e-001dB,-1.69433410489573e+002°)
1.95447444191162e+002	(-1.00914563100316e-001dB,-4.26466828274265e+000°)	(-1.00969372613444e-001dB,1.75728375591932e+002°)
1.99999999999999e+002	(-1.09359926215376e-001dB,-1.93849400925533e+001°)	(-1.09414737878640e-001dB,1.60607941753309e+002°)
2.04658598456150e+002	(-2.17712511219683e-001dB,-3.56171440376103e+001°)	(-2.17767325135222e-001dB,1.44375572005343e+002°)
2.09425709610179e+002	(-6.11007719819950e-001dB,-5.31437943494649e+001°)	(-6.11062536093682e-001dB,1.26848752028602e+002°)
2.14303861047521e+002	(-1.47005350768019e+000dB,-7.10441515996011e+001°)	(-1.47010832642097e+000dB,1.08948221161684e+002°)
2.19295639228636e+002	(-2.82031295374886e+000dB,-8.76523395341720e+001°)	(-2.82036777506588e+000dB,9.23398555664454e+001°)
2.24403690860392e+002	(-4.50854391345657e+000dB,-1.01720850065213e+002°)	(-4.50859873745398e+000dB,7.82711632367372e+001°)
2.29630724299376e+002	(-6.33626353608488e+000dB,-1.12996062663290e+002°)	(-6.33631836284962e+000dB,6.69957646057111e+001°)
2.34979510987905e+002	(-8.16316062955785e+000dB,-1.21858055389663e+002°)	(-8.16321545913658e+000dB,5.81335815135574e+001°)
2.40452886923482e+002	(-9.91772127651427e+000dB,-1.28842590666238e+002°)	(-9.91777610887808e+000dB,5.11488514373426e+001°)
2.46053754162476e+002	(-1.15725239061220e+001dB,-1.34419611200908e+002°)	(-1.15725787411457e+001dB,4.55716315652682e+001°)
2.51785082358833e+002	(-1.31224470498684e+001dB,-1.38946443323793e+002°)	(-1.31225018874072e+001dB,4.10445954601218e+001°)
2.57649910338626e+002	(-1.45721629406070e+001dB,-1.42682199653370e+002°)	(-1.45722177807003e+001dB,3.73086303938531e+001°)
2.63651347711281e+002	(-1.59299831558103e+001dB,-1.45812989058631e+002°)	(-1.59300379987887e+001dB,3.41776273867204e+001°)
2.69792576518330e+002	(-1.72050564682592e+001dB,-1.48473373555267e+002°)	(-1.72051113146223e+001dB,3.15170243106653e+001°)
2.76076852920576e+002	(-1.84061798657902e+001dB,-1.50761954617034e+002°)	(-1.84062347161081e+001dB,2.92282195765303e+001°)
2.82507508924550e+002	(-1.95413543523108e+001dB,-1.52752132231421e+002°)	(-1.95414092073125e+001dB,2.72378130782534e+001°)
2.89087954149185e+002	(-2.06176737906858e+001dB,-1.54499435893728e+002°)	(-2.06177286514519e+001dB,2.54902751999789e+001°)
2.95821677633641e+002	(-2.16413553289873e+001dB,-1.56046535467093e+002°)	(-2.16414101970006e+001dB,2.39429359579536e+001°)
3.02712249687241e+002	(-2.26178234233475e+001dB,-1.57426701860435e+002°)	(-2.26178782999837e+001dB,2.25625243229233e+001°)
3.09763323782495e+002	(-2.35518078152715e+001dB,-1.58666230179770e+002°)	(-2.35518627008766e+001dB,2.13227450638339e+001°)
3.16978638492222e+002	(-2.44474385879867e+001dB,-1.59786162505627e+002°)	(-2.44474934816993e+001dB,2.02025559655479e+001°)
3.24362019471785e+002	(-2.53083319252189e+001dB,-1.60803530481621e+002°)	(-2.53083868255913e+001dB,1.91849252440721e+001°)
3.31917381487511e+002	(-2.61376646339874e+001dB,-1.61732263609899e+002°)	(-2.61377195391650e+001dB,1.82559232554356e+001°)
3.39648730492348e+002	(-2.69382376329856e+001dB,-1.62583862789762e+002°)	(-2.69382925402440e+001dB,1.74040489541128e+001°)
3.47560165749874e+002	(-2.77125296051382e+001dB,-1.63367906701117e+002°)	(-2.77125845108636e+001dB,1.66197235026287e+001°)
3.55655882007783e+002	(-2.84627422019618e+001dB,-1.64092437129111e+002°)	(-2.84627971035084e+001dB,1.58949049478802e+001°)
3.63940171721995e+002	(-2.91908381027127e+001dB,-1.64764255436269e+002°)	(-2.91908930007688e+001dB,1.52227917672530e+001°)
3.72417427332572e+002	(-2.98985730885456e+001dB,-1.65389153074672e+002°)	(-2.98986279863230e+001dB,1.45975923645826e+001°)
3.81092143592648e+002	(-3.05875231311978e+001dB,-1.65972092592545e+002°)	(-3.05875780319206e+001dB,1.40143440454895e+001°)
3.89968919951608e+002	(-3.12591073380862e+001dB,-1.66517351092175e+002°)	(-3.12591622441160e+001dB,1.34687695476501e+001°)
3.99052462993775e+002	(-3.19146074546600e+001dB,-1.67028634927461e+002°)	(-3.19146623681281e+001dB,1.29571623457775e+001°)
4.08347588933904e+002	(-3.25551845065404e+001dB,-1.67509172166531e+002°)	(-3.25552394305965e+001dB,1.24762941943884e+001°)
4.17859226170806e+002	(-3.31818930694190e+001dB,-1.67961787667105e+002°)	(-3.31819480098440e+001dB,1.20233400594164e+001°)
4.27592417900445e+002	(-3.37956935681490e+001dB,-1.68388964234180e+002°)	(-3.37957485345210e+001dB,1.15958169732692e+001°)
4.37552324789909e+002	(-3.43974628670104e+001dB,-1.68792892259069e+002°)	(-3.43975178705756e+001dB,1.11915344067227e+001°)
4.47744227713666e+002	(-3.49880032458788e+001dB,-1.69175510528932e+002°)	(-3.49880582925238e+001dB,1.08085534355665e+001°)
4.58173530553553e+002	(-3.55680500762455e+001dB,-1.69538541987538e+002°)	(-3.55681051620847e+001dB,1.04451509284022e+001°)
4.68845763063983e+002	(-3.61382788253980e+001dB,-1.69883524935707e+002°)	(-3.61383339410987e+001dB,1.00997883523438e+001°)
4.79766583803896e+002	(-3.66993113822615e+001dB,-1.70211837539310e+002°)	(-3.66993665180069e+001dB,9.77108731499604e+000°)
4.90941783137004e+002	(-3.72517214292633e+001dB,-1.70524717422405e+002°)	(-3.72517765740279e+001dB,9.45780998437096e+000°)
5.02377286301914e+002	(-3.77960390468998e+001dB,-1.70823278774869e+002°)	(-3.77960941838813e+001dB,9.15884195531226e+000°)
5.14079156553771e+002	(-3.83327547862129e+001dB,-1.71108527404517e+002°)	(-3.83328098895369e+001dB,8.87317715194892e+000°)
5.26053598379074e+002	(-3.88623233013246e+001dB,-1.71381373746379e+002°)	(-3.88623783430812e+001dB,8.59990479143296e+000°)
5.38306960785381e+002	(-3.93851665873067e+001dB,-1.71642644049634e+002°)	(-3.93852215565820e+001dB,8.33819827722426e+000°)
5.50845740667631e+002	(-3.99016768664060e+001dB,-1.71893090034516e+002°)	(-3.99017317773957e+001dB,8.08730566795601e+000°)
5.63676586252888e+002	(-4.04122191663609e+001dB,-1.72133397290441e+002°)	(-4.04122740451551e+001dB,7.84654123297187e+000°)
5.76806300625319e+002	(-4.09171336359498e+001dB,-1.72364192648838e+002°)	(-4.09171885096443e+001dB,7.61527795704745e+000°)
5.90241845333275e+002	(-4.14167376509875e+001dB,-1.72586050689412e+002°)	(-4.14167925512419e+001dB,7.39294102129976e+000°)
6.03990344080401e+002	(-4.19113277732146e+001dB,-1.72799499277279e+002°)	(-4.19113827470730e+001dB,7.17900234313381e+000°)
6.18059086502716e+002	(-4.24011815617665e+001dB,-1.73005023461794e+002°)	(-4.24012366742088e+001dB,6.97297678541304e+000°)
6.32455532033673e+002	(-4.28865589892819e+001dB,-1.73203067482725e+002°)	(-4.28866142969063e+001dB,6.77442015239577e+000°)
6.47187313859254e+002	(-4.33677032722270e+001dB,-1.73394038199378e+002°)	(-4.33677587823436e+001dB,6.58292550032056e+000°)
6.62262242965179e+002	(-4.38448418804643e+001dB,-1.73578312488485e+002°)	(-4.38448975518021e+001dB,6.39811555391816e+000°)
6.77688312278402e+002	(-4.43181881811759e+001dB,-1.73756242533491e+002°)	(-4.43182439585145e+001dB,6.21963763839002e+000°)
6.93473700905060e+002	(-4.47879428314103e+001dB,-1.73928156539760e+002°)	(-4.47879986600438e+001dB,6.04716317682424e+000°)
7.09626778467148e+002	(-4.52542946473646e+001dB,-1.74094359255674e+002°)	(-4.52543504581654e+001dB,5.88038712569455e+000°)
7.26156109540200e+002	(-4.57174213200470e+001dB,-1.74255133699661e+002°)	(-4.57174770049937e+001dB,5.71902605497479e+000°)
7.43070458194342e+002	(-4.61774901293087e+001dB,-1.74410743214001e+002°)	(-4.61775455439336e+001dB,5.56281586635287e+000°)
7.60378792641119e+002	(-4.66346586406891e+001dB,-1.74561433336385e+002°)	(-4.66347136743783e+001dB,5.41151000960079e+000°)
7.78090289988558e+002	(-4.70890753605914e+001dB,-1.74707433420703e+002°)	(-4.70891300193433e+001dB,5.26487849836156e+000°)
7.96214341106991e+002	(-4.75408803423536e+001dB,-1.74848958052736e+002°)	(-4.75409347277853e+001dB,5.12270674840831e+000°)
