Freq.	V(n081)	V(n083)
2.00000000000000e+001	(-9.48432357649848e+001dB,1.79652529445443e+002°)	(-9.48432902570993e+001dB,-3.48181781228303e-001°)
2.04658598456151e+001	(-9.44429982944546e+001dB,1.79644430889797e+002°)	(-9.44430527322509e+001dB,-3.56297426027075e-001°)
2.09425709610180e+001	(-9.40427496283314e+001dB,1.79636143343980e+002°)	(-9.40428040514358e+001dB,-3.64602657721703e-001°)
2.14303861047521e+001	(-9.36424892388847e+001dB,1.79627662373502e+002°)	(-9.36425437020745e+001dB,-3.73101699495637e-001°)
2.19295639228637e+001	(-9.32422165731429e+001dB,1.79618983450449e+002°)	(-9.32422711148432e+001dB,-3.81798893216456e-001°)
2.24403690860393e+001	(-9.28419310519880e+001dB,1.79610101929616e+002°)	(-9.28419856854145e+001dB,-3.90698863028243e-001°)
2.29630724299377e+001	(-9.24416320692053e+001dB,1.79601013058913e+002°)	(-9.24416867964664e+001dB,-3.99806421051661e-001°)
2.34979510987906e+001	(-9.20413189906305e+001dB,1.79591711970014e+002°)	(-9.20413738123571e+001dB,-4.09126469692978e-001°)
2.40452886923483e+001	(-9.16409911526850e+001dB,1.79582193681588e+002°)	(-9.16410460678372e+001dB,-4.18663960970050e-001°)
2.46053754162476e+001	(-9.12406478612329e+001dB,1.79572453102567e+002°)	(-9.12407028531954e+001dB,-4.28423945086829e-001°)
2.51785082358833e+001	(-9.08402883882237e+001dB,1.79562485034141e+002°)	(-9.08403434147752e+001dB,-4.38411698454540e-001°)
2.57649910338627e+001	(-9.04399119678453e+001dB,1.79552284150868e+002°)	(-9.04399669780703e+001dB,-4.48632755992317e-001°)
2.63651347711281e+001	(-9.00395177974146e+001dB,1.79541844982882e+002°)	(-9.00395727563747e+001dB,-4.59092755964672e-001°)
2.69792576518331e+001	(-8.96391050378913e+001dB,1.79531161916075e+002°)	(-8.96391599308348e+001dB,-4.69797340930286e-001°)
2.76076852920577e+001	(-8.92386728126451e+001dB,1.79520229203849e+002°)	(-8.92387276325732e+001dB,-4.80752229401864e-001°)
2.82507508924551e+001	(-8.88382202037303e+001dB,1.79509040968842e+002°)	(-8.88382749440623e+001dB,-4.91963306413835e-001°)
2.89087954149185e+001	(-8.84377462499543e+001dB,1.79497591194961e+002°)	(-8.84378009070221e+001dB,-5.03436653913160e-001°)
2.95821677633641e+001	(-8.80372499445332e+001dB,1.79485873723034e+002°)	(-8.80373045307962e+001dB,-5.15178493964325e-001°)
3.02712249687242e+001	(-8.76367302327826e+001dB,1.79473882245552e+002°)	(-8.76367847849440e+001dB,-5.27195081548659e-001°)
3.09763323782496e+001	(-8.72361860101134e+001dB,1.79461610303725e+002°)	(-8.72362405726938e+001dB,-5.39492705791948e-001°)
3.16978638492223e+001	(-8.68356161196730e+001dB,1.79449051280045e+002°)	(-8.68356707234278e+001dB,-5.52077866951564e-001°)
3.24362019471786e+001	(-8.64350193500003e+001dB,1.79436198395294e+002°)	(-8.64350740100256e+001dB,-5.64957342714746e-001°)
3.31917381487512e+001	(-8.60343944327653e+001dB,1.79423044702936e+002°)	(-8.60344491583987e+001dB,-5.78138116123671e-001°)
3.39648730492349e+001	(-8.56337400407944e+001dB,1.79409583085926e+002°)	(-8.56337948417119e+001dB,-5.91627306519743e-001°)
3.47560165749875e+001	(-8.52330547860031e+001dB,1.79395806261765e+002°)	(-8.52331096676669e+001dB,-6.05432149486744e-001°)
3.55655882007784e+001	(-8.48323372151538e+001dB,1.79381706791983e+002°)	(-8.48323921653613e+001dB,-6.19560052819192e-001°)
3.63940171721997e+001	(-8.44315858021395e+001dB,1.79367277079672e+002°)	(-8.44316407864559e+001dB,-6.34018702674095e-001°)
3.72417427332573e+001	(-8.40307989434301e+001dB,1.79352509323221e+002°)	(-8.40308539221727e+001dB,-6.48816086005324e-001°)
3.81092143592649e+001	(-8.36299749600569e+001dB,1.79337395494957e+002°)	(-8.36300299067028e+001dB,-6.63960350094865e-001°)
3.89968919951609e+001	(-8.32291120970940e+001dB,1.79321927358550e+002°)	(-8.32291669970390e+001dB,-6.79459754895578e-001°)
3.99052462993776e+001	(-8.28282085186675e+001dB,1.79306096482887e+002°)	(-8.28282633606770e+001dB,-6.95322735234093e-001°)
4.08347588933906e+001	(-8.24272623024800e+001dB,1.79289894235778e+002°)	(-8.24273170743032e+001dB,-7.11557964403627e-001°)
4.17859226170808e+001	(-8.20262714349012e+001dB,1.79273311776531e+002°)	(-8.20263261291239e+001dB,-7.28174370732752e-001°)
4.27592417900446e+001	(-8.16252338065323e+001dB,1.79256340045981e+002°)	(-8.16252884343290e+001dB,-7.45181078374714e-001°)
4.37552324789910e+001	(-8.12241472078860e+001dB,1.79238969759621e+002°)	(-8.12242018020577e+001dB,-7.62587306598339e-001°)
4.47744227713668e+001	(-8.08230093243495e+001dB,1.79221191399522e+002°)	(-8.08230639209671e+001dB,-7.80402437059743e-001°)
4.58173530553554e+001	(-8.04218177316106e+001dB,1.79202995205364e+002°)	(-8.04218723551156e+001dB,-7.98636160545100e-001°)
4.68845763063984e+001	(-8.00205698908273e+001dB,1.79184371167001e+002°)	(-8.00206245563689e+001dB,-8.17298500692307e-001°)
4.79766583803898e+001	(-7.96192631439393e+001dB,1.79165309014222e+002°)	(-7.96193178648134e+001dB,-8.36399750426645e-001°)
4.90941783137006e+001	(-7.92178947099650e+001dB,1.79145798217696e+002°)	(-7.92179495003125e+001dB,-8.55950422241948e-001°)
5.02377286301916e+001	(-7.88164616794299e+001dB,1.79125828007263e+002°)	(-7.88165165462094e+001dB,-8.75961230221790e-001°)
5.14079156553772e+001	(-7.84149610025443e+001dB,1.79105387392183e+002°)	(-7.84150159323851e+001dB,-8.96443157367073e-001°)
5.26053598379076e+001	(-7.80133894739524e+001dB,1.79084465115415e+002°)	(-7.80134444346878e+001dB,-9.17407581979962e-001°)
5.38306960785383e+001	(-7.76117437295925e+001dB,1.79063049572548e+002°)	(-7.76117986892143e+001dB,-9.38866272850167e-001°)
5.50845740667633e+001	(-7.72100202499845e+001dB,1.79041128807609e+002°)	(-7.72100751872030e+001dB,-9.60831272981756e-001°)
5.63676586252890e+001	(-7.68082153542481e+001dB,1.79018690551898e+002°)	(-7.68082702546475e+001dB,-9.83314875562510e-001°)
5.76806300625321e+001	(-7.64063251889163e+001dB,1.78995722232465e+002°)	(-7.64063800380465e+001dB,-1.00632968064170e+000°)
5.90241845333277e+001	(-7.60043457173630e+001dB,1.78972210959612e+002°)	(-7.60044004995174e+001dB,-1.02988865086581e+000°)
6.03990344080403e+001	(-7.56022727103254e+001dB,1.78948143510225e+002°)	(-7.56023274177875e+001dB,-1.05400511867118e+000°)
6.18059086502718e+001	(-7.52001017364676e+001dB,1.78923506313804e+002°)	(-7.52001563828916e+001dB,-1.07869270494730e+000°)
6.32455532033675e+001	(-7.47978281528553e+001dB,1.78898285437503e+002°)	(-7.47978827692909e+001dB,-1.10396526336470e+000°)
6.47187313859256e+001	(-7.43954470948694e+001dB,1.78872466571972e+002°)	(-7.43955017112866e+001dB,-1.12983700043570e+000°)
6.62262242965182e+001	(-7.39929534658630e+001dB,1.78846035014439e+002°)	(-7.39930081027548e+001dB,-1.15632259238484e+000°)
6.77688312278404e+001	(-7.35903419272870e+001dB,1.78818975650764e+002°)	(-7.35903966001447e+001dB,-1.18343717849915e+000°)
6.93473700905062e+001	(-7.31876068897927e+001dB,1.78791272943127e+002°)	(-7.31876616149848e+001dB,-1.21119631170855e+000°)
7.09626778467150e+001	(-7.27847425048821e+001dB,1.78762910944677e+002°)	(-7.27847972988771e+001dB,-1.23961590650522e+000°)
7.26156109540202e+001	(-7.23817426489736e+001dB,1.78733873355547e+002°)	(-7.23817975168744e+001dB,-1.26871221086405e+000°)
7.43070458194344e+001	(-7.19786008924783e+001dB,1.78704143521899e+002°)	(-7.19786558171810e+001dB,-1.29850191341069e+000°)
7.60378792641121e+001	(-7.15753104764040e+001dB,1.78673704284788e+002°)	(-7.15753654274878e+001dB,-1.32900232421544e+000°)
7.78090289988560e+001	(-7.11718643152862e+001dB,1.78642537871380e+002°)	(-7.11719192663260e+001dB,-1.36023135923970e+000°)
7.96214341106993e+001	(-7.07682549957715e+001dB,1.78610625946506e+002°)	(-7.07683099286892e+001dB,-1.39220742255366e+000°)
8.14760555608224e+001	(-7.03644747575090e+001dB,1.78577949666326e+002°)	(-7.03645296570870e+001dB,-1.42494939231814e+000°)
8.33738766940670e+001	(-6.99605154700208e+001dB,1.78544489672224e+002°)	(-6.99605703188500e+001dB,-1.45847668335377e+000°)
8.53159037603184e+001	(-6.95563686116980e+001dB,1.78510226060460e+002°)	(-6.95564233925936e+001dB,-1.49280930816934e+000°)
8.73031664480331e+001	(-6.91520252499106e+001dB,1.78475138351539e+002°)	(-6.91520799588841e+001dB,-1.52796786580349e+000°)
8.93367184301925e+001	(-6.87474760207733e+001dB,1.78439205461172e+002°)	(-6.87475306762649e+001dB,-1.56397346006999e+000°)
9.14176379229749e+001	(-6.83427111080832e+001dB,1.78402405670777e+002°)	(-6.83427657396176e+001dB,-1.60084772658765e+000°)
9.35470282574395e+001	(-6.79377202213816e+001dB,1.78364716595061e+002°)	(-6.79377748538336e+001dB,-1.63861299184345e+000°)
9.57260184645275e+001	(-6.75324925738767e+001dB,1.78326115144456e+002°)	(-6.75325472251327e+001dB,-1.67729235719023e+000°)
9.79557638736891e+001	(-6.71270168617847e+001dB,1.78286577487300e+002°)	(-6.71270715483577e+001dB,-1.71690969078641e+000°)
1.00237446725454e+002	(-6.67212812464990e+001dB,1.78246079040028e+002°)	(-6.67213359873681e+001dB,-1.75748958368389e+000°)
1.02572276798273e+002	(-6.63152733324849e+001dB,1.78204594540726e+002°)	(-6.63153281440168e+001dB,-1.79905725680006e+000°)
1.04961492049954e+002	(-6.59089801184062e+001dB,1.78162098151984e+002°)	(-6.59090350003296e+001dB,-1.84163852332468e+000°)
1.07406359274050e+002	(-6.55023879295661e+001dB,1.78118563309108e+002°)	(-6.55024428604546e+001dB,-1.88526004186199e+000°)
1.09908174771525e+002	(-6.50954823949788e+001dB,1.78073962379105e+002°)	(-6.50955373469280e+001dB,-1.92994961417858e+000°)
1.12468265038070e+002	(-6.46882484553135e+001dB,1.78028266604105e+002°)	(-6.46883034065648e+001dB,-1.97573612217608e+000°)
1.15087987467431e+002	(-6.42806703388296e+001dB,1.77981446236139e+002°)	(-6.42807252732463e+001dB,-2.02264937753791e+000°)
1.17768731071118e+002	(-6.38727315135285e+001dB,1.77933470577962e+002°)	(-6.38727864146818e+001dB,-2.07072013132960e+000°)
1.20511917214871e+002	(-6.34644146393476e+001dB,1.77884307934586e+002°)	(-6.34644694875907e+001dB,-2.11998017112702e+000°)
1.23319000372296e+002	(-6.30557015236960e+001dB,1.77833925543864e+002°)	(-6.30557563029227e+001dB,-2.17046240217913e+000°)
1.26191468896038e+002	(-6.26465730772260e+001dB,1.77782289508592e+002°)	(-6.26466277893743e+001dB,-2.22220083658641e+000°)
1.29130845806931e+002	(-6.22370092678910e+001dB,1.77729364729128e+002°)	(-6.22370639350958e+001dB,-2.27523056787852e+000°)
1.32138689601519e+002	(-6.18269890727547e+001dB,1.77675114831164e+002°)	(-6.18270437218933e+001dB,-2.32958790790841e+000°)
1.35216595078396e+002	(-6.14164904280800e+001dB,1.77619502083017e+002°)	(-6.14165450800914e+001dB,-2.38531057854021e+000°)
1.38366194183787e+002	(-6.10054901798027e+001dB,1.77562487301502e+002°)	(-6.10055448514023e+001dB,-2.44243780765306e+000°)
1.41589156876827e+002	(-6.05939640385226e+001dB,1.77504029770750e+002°)	(-6.05940187477799e+001dB,-2.50101035825405e+000°)
1.44887192014998e+002	(-6.01818865378587e+001dB,1.77444087266629e+002°)	(-6.01819413053779e+001dB,-2.56107045864639e+000°)
1.48262048260183e+002	(-5.97692309655640e+001dB,1.77382616267852e+002°)	(-5.97692858049904e+001dB,-2.62266159724625e+000°)
1.51715515005836e+002	(-5.93559692275107e+001dB,1.77319572001103e+002°)	(-5.93560241321056e+001dB,-2.68582857514865e+000°)
1.55249423325738e+002	(-5.89420717264431e+001dB,1.77254907833674e+002°)	(-5.89421266724591e+001dB,-2.75061817482278e+000°)
1.58865646944856e+002	(-5.85275073505955e+001dB,1.77188574724749e+002°)	(-5.85275623133888e+001dB,-2.81707961243202e+000°)
1.62566103232819e+002	(-5.81122434591018e+001dB,1.77120521338450e+002°)	(-5.81122984202504e+001dB,-2.88526433998723e+000°)
1.66352754220534e+002	(-5.76962457936087e+001dB,1.77050694232887e+002°)	(-5.76963007374771e+001dB,-2.95522587525168e+000°)
1.70227607640475e+002	(-5.72794783661937e+001dB,1.76979037811556e+002°)	(-5.72795332745730e+001dB,-3.02701990204225e+000°)
1.74192717991216e+002	(-5.68619033522334e+001dB,1.76905494160372e+002°)	(-5.68619582046028e+001dB,-3.10070447319142e+000°)
1.78250187626749e+002	(-5.64434809857222e+001dB,1.76830002866729e+002°)	(-5.64435357704625e+001dB,-3.17634017129746e+000°)
1.82402167871181e+002	(-5.60241694513393e+001dB,1.76752500837622e+002°)	(-5.60242241777811e+001dB,-3.25399018510196e+000°)
1.86650860159398e+002	(-5.56039247705712e+001dB,1.76672922108852e+002°)	(-5.56039794625768e+001dB,-3.33372046428070e+000°)
1.90998517204287e+002	(-5.51827006814811e+001dB,1.76591197633221e+002°)	(-5.51827553621807e+001dB,-3.41560003857663e+000°)
1.95447444191162e+002	(-5.47604485141101e+001dB,1.76507255036781e+002°)	(-5.47605032010830e+001dB,-3.49970132632097e+000°)
1.99999999999999e+002	(-5.43371170677006e+001dB,1.76421018352159e+002°)	(-5.43371717770776e+001dB,-3.58610037306632e+000°)
2.04658598456150e+002	(-5.39126524977547e+001dB,1.76332407826372e+002°)	(-5.39127072488910e+001dB,-3.67487699325680e+000°)
2.09425709610179e+002	(-5.34869981928521e+001dB,1.76241340048583e+002°)	(-5.34870530060903e+001dB,-3.76611460942498e+000°)
2.14303861047521e+002	(-5.30600945477544e+001dB,1.76147728325308e+002°)	(-5.30601494316623e+001dB,-3.85989991590835e+000°)
2.19295639228636e+002	(-5.26318786214027e+001dB,1.76051482150153e+002°)	(-5.26319335635335e+001dB,-3.95632351642085e+000°)
2.24403690860392e+002	(-5.22022839400615e+001dB,1.75952505592316e+002°)	(-5.22023389167910e+001dB,-4.05548153657914e+000°)
2.29630724299376e+002	(-5.17712404655541e+001dB,1.75850696620881e+002°)	(-5.17712954557570e+001dB,-4.15747618771638e+000°)
2.34979510987905e+002	(-5.13386744510241e+001dB,1.75745947416140e+002°)	(-5.13387294383188e+001dB,-4.26241541473905e+000°)
2.40452886923482e+002	(-5.09045081734008e+001dB,1.75638144390310e+002°)	(-5.09045631413520e+001dB,-4.37041291298621e+000°)
2.46053754162476e+002	(-5.04686596468616e+001dB,1.75527167777935e+002°)	(-5.04687145753622e+001dB,-4.48158858757204e+000°)
2.51785082358833e+002	(-5.00310423404501e+001dB,1.75412891079020e+002°)	(-5.00310972107581e+001dB,-4.59606913170303e+000°)
2.57649910338626e+002	(-4.95915648877465e+001dB,1.75295180468585e+002°)	(-4.95916196964054e+001dB,-4.71398855253639e+000°)
2.63651347711281e+002	(-4.91501307786592e+001dB,1.75173894177252e+002°)	(-4.91501855420553e+001dB,-4.83548869411649e+000°)
2.69792576518330e+002	(-4.87066380286147e+001dB,1.75048881823390e+002°)	(-4.87066927700985e+001dB,-4.96071994819134e+000°)
2.76076852920576e+002	(-4.82609788234540e+001dB,1.74919983676571e+002°)	(-4.82610335625405e+001dB,-5.08984209440430e+000°)
2.82507508924550e+002	(-4.78130391412758e+001dB,1.74787029840091e+002°)	(-4.78130938939852e+001dB,-5.22302513071365e+000°)
2.89087954149185e+002	(-4.73626983558790e+001dB,1.74649839382086e+002°)	(-4.73627531396690e+001dB,-5.36045009879795e+000°)
2.95821677633641e+002	(-4.69098288180479e+001dB,1.74508219559085e+002°)	(-4.69098836536218e+001dB,-5.50230981570963e+000°)
3.02712249687241e+002	(-4.64542953618722e+001dB,1.74361965264193e+002°)	(-4.64543502652002e+001dB,-5.64880942293380e+000°)
3.09763323782495e+002	(-4.59959546657122e+001dB,1.74210858120029e+002°)	(-4.59960096348770e+001dB,-5.80016737863415e+000°)
3.16978638492222e+002	(-4.55346545951024e+001dB,1.74054664400246e+002°)	(-4.55347096110937e+001dB,-5.95661760232234e+000°)
3.24362019471785e+002	(-4.50702336784711e+001dB,1.73893132896209e+002°)	(-4.50702887184248e+001dB,-6.11841153216190e+000°)
3.31917381487511e+002	(-4.46025205323150e+001dB,1.73725993687804e+002°)	(-4.46025755757647e+001dB,-6.28581927865098e+000°)
3.39648730492348e+002	(-4.41313331167055e+001dB,1.73552956883396e+002°)	(-4.41313881428279e+001dB,-6.45913090649590e+000°)
3.47560165749874e+002	(-4.36564778920313e+001dB,1.73373710804772e+002°)	(-4.36565328786717e+001dB,-6.63865830438275e+000°)
3.55655882007783e+002	(-4.31777489150923e+001dB,1.73187919775100e+002°)	(-4.31778038488520e+001dB,-6.82473739163760e+000°)
3.63940171721995e+002	(-4.26949268632918e+001dB,1.72995221629389e+002°)	(-4.26949817511067e+001dB,-7.01773050283369e+000°)
3.72417427332572e+002	(-4.22077779688771e+001dB,1.72795224940605e+002°)	(-4.22078328307563e+001dB,-7.21802912913684e+000°)
3.81092143592648e+002	(-4.17160528481369e+001dB,1.72587505909540e+002°)	(-4.17161077020518e+001dB,-7.42605713841289e+000°)
3.89968919951608e+002	(-4.12194852118184e+001dB,1.72371604852481e+002°)	(-4.12195400688374e+001dB,-7.64227434595688e+000°)
3.99052462993775e+002	(-4.07177904434588e+001dB,1.72147022209658e+002°)	(-4.07178453103310e+001dB,-7.86718048439385e+000°)
4.08347588933904e+002	(-4.02106640344044e+001dB,1.71913213990327e+002°)	(-4.02107189174669e+001dB,-8.10131973064028e+000°)
4.17859226170806e+002	(-3.96977798695240e+001dB,1.71669586607417e+002°)	(-3.96978347782055e+001dB,-8.34528585231686e+000°)
4.27592417900445e+002	(-3.91787883524503e+001dB,1.71415491231213e+002°)	(-3.91788433010468e+001dB,-8.59972783334148e+000°)
4.37552324789909e+002	(-3.86533142852088e+001dB,1.71150217970513e+002°)	(-3.86533692888709e+001dB,-8.86535568123293e+000°)
4.47744227713666e+002	(-3.81209543019350e+001dB,1.70872989227694e+002°)	(-3.81210093658155e+001dB,-9.14294711737702e+000°)
4.58173530553553e+002	(-3.75812739164677e+001dB,1.70582949967519e+002°)	(-3.75813290308366e+001dB,-9.43335738493456e+000°)
4.68845763063983e+002	(-3.70338045893848e+001dB,1.70279155528291e+002°)	(-3.70338597383846e+001dB,-9.73753141539715e+000°)
4.79766583803896e+002	(-3.64780406086402e+001dB,1.69960559899698e+002°)	(-3.64780957789034e+001dB,-1.00565154716754e+001°)
4.90941783137004e+002	(-3.59134353252561e+001dB,1.69626003210976e+002°)	(-3.59134905063263e+001dB,-1.03914696433876e+001°)
5.02377286301914e+002	(-3.53393967580737e+001dB,1.69274196284777e+002°)	(-3.53394519387387e+001dB,-1.07436833219357e+001°)
5.14079156553771e+002	(-3.47552826345856e+001dB,1.68903701893537e+002°)	(-3.47553378004806e+001dB,-1.11145939786214e+001°)
5.26053598379074e+002	(-3.41603947907829e+001dB,1.68512912558877e+002°)	(-3.41604499285755e+001dB,-1.15058093781285e+001°)
5.38306960785381e+002	(-3.35539727994668e+001dB,1.68100024303669e+002°)	(-3.35540279070252e+001dB,-1.19191337750761e+001°)
5.50845740667631e+002	(-3.29351866817321e+001dB,1.67663005447384e+002°)	(-3.29352417705610e+001dB,-1.23565990533826e+001°)
5.63676586252888e+002	(-3.23031285381012e+001dB,1.67199559268032e+002°)	(-3.23031836241064e+001dB,-1.28205021017523e+001°)
5.76806300625319e+002	(-3.16568029109302e+001dB,1.66707079041244e+002°)	(-3.16568580074349e+001dB,-1.33134498432894e+001°)
5.90241845333275e+002	(-3.09951156630056e+001dB,1.66182593601614e+002°)	(-3.09951707810948e+001dB,-1.38384136798603e+001°)
6.03990344080401e+002	(-3.03168611216426e+001dB,1.65622701266125e+002°)	(-3.03169162732857e+001dB,-1.43987955401424e+001°)
6.18059086502716e+002	(-2.96207071179864e+001dB,1.65023489782094e+002°)	(-2.96207623169265e+001dB,-1.49985079038989e+001°)
6.32455532033673e+002	(-2.89051772324633e+001dB,1.64380438554209e+002°)	(-2.89052324889452e+001dB,-1.56420715776573e+001°)
6.47187313859254e+002	(-2.81686295268310e+001dB,1.63688294490622e+002°)	(-2.81686848403715e+001dB,-1.63347399035064e+001°)
6.62262242965179e+002	(-2.74092318913471e+001dB,1.62940911733013e+002°)	(-2.74092872526813e+001dB,-1.70826590587016e+001°)
6.77688312278402e+002	(-2.66249336971271e+001dB,1.62131051595198e+002°)	(-2.66249890962079e+001dB,-1.78930680666347e+001°)
6.93473700905060e+002	(-2.58134319537847e+001dB,1.61250131815637e+002°)	(-2.58134873833766e+001dB,-1.87745495045470e+001°)
7.09626778467148e+002	(-2.49721306226466e+001dB,1.60287902242903e+002°)	(-2.49721860770771e+001dB,-1.97373538258542e+001°)
7.26156109540200e+002	(-2.40980922174004e+001dB,1.59232019630948e+002°)	(-2.40981476902526e+001dB,-2.07938245871285e+001°)
7.43070458194342e+002	(-2.31879804937610e+001dB,1.58067485642811e+002°)	(-2.31880359777598e+001dB,-2.19589604619054e+001°)
7.60378792641119e+002	(-2.22379928931639e+001dB,1.56775895696393e+002°)	(-2.22380483843819e+001dB,-2.32511663870872e+001°)
7.78090289988558e+002	(-2.12437817753846e+001dB,1.55334421674456e+002°)	(-2.12438372774861e+001dB,-2.46932708133209e+001°)
7.96214341106991e+002	(-2.02003646456011e+001dB,1.53714414663080e+002°)	(-2.02004201673465e+001dB,-2.63139229567359e+001°)
