Freq.	V(n022)	V(n024)
2.00000000000000e+001	(-1.37194866771379e+002dB,1.79967738474551e+002°)	(-1.37194880972442e+002dB,-3.28974922757353e-002°)
2.04658598456151e+001	(-1.36794865084818e+002dB,1.79966986994202e+002°)	(-1.36794872227742e+002dB,-3.37328081705321e-002°)
2.09425709610180e+001	(-1.36394863307945e+002dB,1.79966218138619e+002°)	(-1.36394868596443e+002dB,-3.46127221585871e-002°)
2.14303861047521e+001	(-1.35994861452936e+002dB,1.79965431232576e+002°)	(-1.35994872076866e+002dB,-3.55100358495797e-002°)
2.19295639228637e+001	(-1.35594859506347e+002dB,1.79964626027760e+002°)	(-1.35594880476191e+002dB,-3.63988405880335e-002°)
2.24403690860393e+001	(-1.35194857446010e+002dB,1.79963802095427e+002°)	(-1.35194890469267e+002dB,-3.72757571498799e-002°)
2.29630724299377e+001	(-1.34794855330304e+002dB,1.79962958875976e+002°)	(-1.34794900651994e+002dB,-3.81482070034402e-002°)
2.34979510987906e+001	(-1.34394853099125e+002dB,1.79962095969881e+002°)	(-1.34394910834211e+002dB,-3.90194439760582e-002°)
2.40452886923483e+001	(-1.33994850747902e+002dB,1.79961212959888e+002°)	(-1.33994920717713e+002dB,-3.98850327350510e-002°)
2.46053754162476e+001	(-1.33594848308650e+002dB,1.79960309499785e+002°)	(-1.33594928229835e+002dB,-4.07386859878919e-002°)
2.51785082358833e+001	(-1.33194845753670e+002dB,1.79959384960506e+002°)	(-1.33194930141863e+002dB,-4.15895823104975e-002°)
2.57649910338627e+001	(-1.32794843075407e+002dB,1.79958438882292e+002°)	(-1.32794925208957e+002dB,-4.24650901121420e-002°)
2.63651347711281e+001	(-1.32394840275306e+002dB,1.79957470834476e+002°)	(-1.32394915616052e+002dB,-4.33856824994105e-002°)
2.69792576518331e+001	(-1.31994837338175e+002dB,1.79956480222898e+002°)	(-1.31994903964006e+002dB,-4.43540729005960e-002°)
2.76076852920577e+001	(-1.31594834266447e+002dB,1.79955466541164e+002°)	(-1.31594891283992e+002dB,-4.53656313126935e-002°)
2.82507508924551e+001	(-1.31194831041287e+002dB,1.79954429272652e+002°)	(-1.31194877594095e+002dB,-4.64205271495605e-002°)
2.89087954149185e+001	(-1.30794827663576e+002dB,1.79953367755282e+002°)	(-1.30794863307601e+002dB,-4.75260137683902e-002°)
2.95821677633641e+001	(-1.30394824123302e+002dB,1.79952281618425e+002°)	(-1.30394850527748e+002dB,-4.86893873825514e-002°)
3.02712249687242e+001	(-1.29994820416819e+002dB,1.79951170077077e+002°)	(-1.29994842440674e+002dB,-4.99025400031022e-002°)
3.09763323782496e+001	(-1.29594816531764e+002dB,1.79950032697626e+002°)	(-1.29594840024265e+002dB,-5.11421395111408e-002°)
3.16978638492223e+001	(-1.29194812474173e+002dB,1.79948868799048e+002°)	(-1.29194841440729e+002dB,-5.23914992101627e-002°)
3.24362019471786e+001	(-1.28794808219013e+002dB,1.79947677784618e+002°)	(-1.28794844617261e+002dB,-5.36494048168966e-002°)
3.31917381487512e+001	(-1.28394803767888e+002dB,1.79946459059290e+002°)	(-1.28394848799042e+002dB,-5.49195591141032e-002°)
3.39648730492349e+001	(-1.27994799090354e+002dB,1.79945211823795e+002°)	(-1.27994854004078e+002dB,-5.62012778492798e-002°)
3.47560165749875e+001	(-1.27594794212671e+002dB,1.79943935547638e+002°)	(-1.27594859684282e+002dB,-5.74869043524255e-002°)
3.55655882007784e+001	(-1.27194789106040e+002dB,1.79942629510212e+002°)	(-1.27194863520015e+002dB,-5.87712460072319e-002°)
3.63940171721997e+001	(-1.26794783768259e+002dB,1.79941293113781e+002°)	(-1.26794862533559e+002dB,-6.00650810436796e-002°)
3.72417427332573e+001	(-1.26394778177714e+002dB,1.79939925612414e+002°)	(-1.26394856109913e+002dB,-6.13913009719912e-002°)
3.81092143592649e+001	(-1.25994772326452e+002dB,1.79938526326826e+002°)	(-1.25994845938935e+002dB,-6.27641641551287e-002°)
3.89968919951609e+001	(-1.25594766190684e+002dB,1.79937094438762e+002°)	(-1.25594833595592e+002dB,-6.41854112843761e-002°)
3.99052462993776e+001	(-1.25194759761238e+002dB,1.79935629230663e+002°)	(-1.25194819493613e+002dB,-6.56540463722711e-002°)
4.08347588933906e+001	(-1.24794753028953e+002dB,1.79934129858399e+002°)	(-1.24794803500240e+002dB,-6.71739525838258e-002°)
4.17859226170808e+001	(-1.24394745972413e+002dB,1.79932595599806e+002°)	(-1.24394786255081e+002dB,-6.87552245122370e-002°)
4.27592417900446e+001	(-1.23994738586360e+002dB,1.79931025575598e+002°)	(-1.23994770201569e+002dB,-7.04047137986581e-002°)
4.37552324789910e+001	(-1.23594730845700e+002dB,1.79929418965928e+002°)	(-1.23594758146987e+002dB,-7.21120905201612e-002°)
4.47744227713668e+001	(-1.23194722743675e+002dB,1.79927774923843e+002°)	(-1.23194750465002e+002dB,-7.38576145831648e-002°)
4.58173530553554e+001	(-1.22794714248491e+002dB,1.79926092598565e+002°)	(-1.22794745600465e+002dB,-7.56308033369469e-002°)
4.68845763063984e+001	(-1.22394705355971e+002dB,1.79924371010112e+002°)	(-1.22394742294345e+002dB,-7.74317967994090e-002°)
4.79766583803898e+001	(-1.21994696038761e+002dB,1.79922609274297e+002°)	(-1.21994740303967e+002dB,-7.92619147374353e-002°)
4.90941783137006e+001	(-1.21594686289984e+002dB,1.79920806436276e+002°)	(-1.21594739691867e+002dB,-8.11171847706442e-002°)
5.02377286301916e+001	(-1.21194676090356e+002dB,1.79918961568256e+002°)	(-1.21194739503120e+002dB,-8.29884357457802e-002°)
5.14079156553772e+001	(-1.20794665427800e+002dB,1.79917073722744e+002°)	(-1.20794737033457e+002dB,-8.48730104832534e-002°)
5.26053598379076e+001	(-1.20394654274161e+002dB,1.79915141975897e+002°)	(-1.20394729799380e+002dB,-8.67851139483180e-002°)
5.38306960785383e+001	(-1.19994642594704e+002dB,1.79913165330676e+002°)	(-1.19994717819995e+002dB,-8.87444636228465e-002°)
5.50845740667633e+001	(-1.19594630358114e+002dB,1.79911142711383e+002°)	(-1.19594702503608e+002dB,-9.07604814189400e-002°)
5.63676586252890e+001	(-1.19194617536170e+002dB,1.79909072996857e+002°)	(-1.19194684714764e+002dB,-9.28343128222783e-002°)
5.76806300625321e+001	(-1.18794604102743e+002dB,1.79906955081102e+002°)	(-1.18794664427757e+002dB,-9.49675099014311e-002°)
5.90241845333277e+001	(-1.18394590032265e+002dB,1.79904787819723e+002°)	(-1.18394641470509e+002dB,-9.71675820364957e-002°)
6.03990344080403e+001	(-1.17994575293460e+002dB,1.79902570064970e+002°)	(-1.17994616889950e+002dB,-9.94467463625015e-002°)
6.18059086502718e+001	(-1.17594559855090e+002dB,1.79900300645299e+002°)	(-1.17594593478930e+002dB,-1.01809008848997e-001°)
6.32455532033675e+001	(-1.17194543686432e+002dB,1.79897978341744e+002°)	(-1.17194573477268e+002dB,-1.04241555629581e-001°)
6.47187313859256e+001	(-1.16794526749118e+002dB,1.79895601934775e+002°)	(-1.16794556653754e+002dB,-1.06728442477768e-001°)
6.62262242965182e+001	(-1.16394509007189e+002dB,1.79893170117561e+002°)	(-1.16394541713176e+002dB,-1.09263969244609e-001°)
6.77688312278404e+001	(-1.15994490423108e+002dB,1.79890681575319e+002°)	(-1.15994527962156e+002dB,-1.11849085698844e-001°)
6.93473700905062e+001	(-1.15594470963220e+002dB,1.79888134960794e+002°)	(-1.15594515467737e+002dB,-1.14483318056359e-001°)
7.09626778467150e+001	(-1.15194450596767e+002dB,1.79885528869645e+002°)	(-1.15194504192416e+002dB,-1.17159829501383e-001°)
7.26156109540202e+001	(-1.14794429299839e+002dB,1.79882861976287e+002°)	(-1.14794492578312e+002dB,-1.19869272264368e-001°)
7.43070458194344e+001	(-1.14394407030441e+002dB,1.79880133033561e+002°)	(-1.14394477648223e+002dB,-1.22613809058293e-001°)
7.60378792641121e+001	(-1.13994383726851e+002dB,1.79877340701358e+002°)	(-1.13994457624016e+002dB,-1.25410715109930e-001°)
7.78090289988560e+001	(-1.13594359319899e+002dB,1.79874483486311e+002°)	(-1.13594433000406e+002dB,-1.28276095113179e-001°)
7.96214341106993e+001	(-1.13194333746872e+002dB,1.79871559808160e+002°)	(-1.13194404831078e+002dB,-1.31216116063318e-001°)
8.14760555608224e+001	(-1.12794306954822e+002dB,1.79868568061538e+002°)	(-1.12794373442918e+002dB,-1.34232421485480e-001°)
8.33738766940670e+001	(-1.12394278887775e+002dB,1.79865506626039e+002°)	(-1.12394338496025e+002dB,-1.37329534700348e-001°)
8.53159037603184e+001	(-1.11994249487046e+002dB,1.79862373866024e+002°)	(-1.11994299992923e+002dB,-1.40518817670920e-001°)
8.73031664480331e+001	(-1.11594218692535e+002dB,1.79859168117650e+002°)	(-1.11594259664633e+002dB,-1.43812721100369e-001°)
8.93367184301925e+001	(-1.11194186437007e+002dB,1.79855887661055e+002°)	(-1.11194220412250e+002dB,-1.47210184599267e-001°)
9.14176379229749e+001	(-1.10794152650468e+002dB,1.79852530757005e+002°)	(-1.10794183583930e+002dB,-1.50696683247198e-001°)
9.35470282574395e+001	(-1.10394117259497e+002dB,1.79849095587007e+002°)	(-1.10394148445988e+002dB,-1.54261154325252e-001°)
9.57260184645275e+001	(-1.09994080187189e+002dB,1.79845580292063e+002°)	(-1.09994113987723e+002dB,-1.57901839188513e-001°)
9.79557638736891e+001	(-1.09594041356492e+002dB,1.79841982911810e+002°)	(-1.09594079946108e+002dB,-1.61620119179637e-001°)
1.00237446725454e+002	(-1.09194000701688e+002dB,1.79838301445566e+002°)	(-1.09194046569744e+002dB,-1.65413354848216e-001°)
1.02572276798273e+002	(-1.08793958169578e+002dB,1.79834533919493e+002°)	(-1.08794013411194e+002dB,-1.69272399748797e-001°)
1.04961492049954e+002	(-1.08393913698899e+002dB,1.79830678557335e+002°)	(-1.08393978153762e+002dB,-1.73190326012050e-001°)
1.07406359274050e+002	(-1.07993867187497e+002dB,1.79826733626716e+002°)	(-1.07993937898941e+002dB,-1.77175913508264e-001°)
1.09908174771525e+002	(-1.07593818494440e+002dB,1.79822697164225e+002°)	(-1.07593891702077e+002dB,-1.81247657424203e-001°)
1.12468265038070e+002	(-1.07193767486153e+002dB,1.79818566931323e+002°)	(-1.07193840288653e+002dB,-1.85417951420083e-001°)
1.15087987467431e+002	(-1.06793714044915e+002dB,1.79814340608002e+002°)	(-1.06793784292875e+002dB,-1.89691109804183e-001°)
1.17768731071118e+002	(-1.06393658058433e+002dB,1.79810015865101e+002°)	(-1.06393723561918e+002dB,-1.94070136188419e-001°)
1.20511917214871e+002	(-1.05993599411503e+002dB,1.79805590362437e+002°)	(-1.05993657573943e+002dB,-1.98563183282669e-001°)
1.23319000372296e+002	(-1.05593537980789e+002dB,1.79801061735831e+002°)	(-1.05593586737767e+002dB,-2.03184860386098e-001°)
1.26191468896038e+002	(-1.05193473636981e+002dB,1.79796427568045e+002°)	(-1.05193513387209e+002dB,-2.07945461728940e-001°)
1.29130845806931e+002	(-1.04793406239823e+002dB,1.79791685378533e+002°)	(-1.04793440058067e+002dB,-2.12838900344205e-001°)
1.32138689601519e+002	(-1.04393335642499e+002dB,1.79786832618936e+002°)	(-1.04393367169918e+002dB,-2.17851818040470e-001°)
1.35216595078396e+002	(-1.03993261689187e+002dB,1.79781866639212e+002°)	(-1.03993293732619e+002dB,-2.22978136681921e-001°)
1.38366194183787e+002	(-1.03593184221494e+002dB,1.79776784673225e+002°)	(-1.03593219017717e+002dB,-2.28218975363688e-001°)
1.41589156876827e+002	(-1.03193103088585e+002dB,1.79771583813283e+002°)	(-1.03193143053673e+002dB,-2.33575548108258e-001°)
1.44887192014998e+002	(-1.02793018165570e+002dB,1.79766261118581e+002°)	(-1.02793066019625e+002dB,-2.39043054122955e-001°)
1.48262048260183e+002	(-1.02392929348041e+002dB,1.79760813912073e+002°)	(-1.02392986796855e+002dB,-2.44611536365213e-001°)
1.51715515005836e+002	(-1.01992836482930e+002dB,1.79755239898545e+002°)	(-1.01992902438283e+002dB,-2.50279118315167e-001°)
1.55249423325738e+002	(-1.01592739318429e+002dB,1.79749536659632e+002°)	(-1.01592810445414e+002dB,-2.56060283064085e-001°)
1.58865646944856e+002	(-1.01192637566505e+002dB,1.79743701202195e+002°)	(-1.01192710483077e+002dB,-2.61972842129068e-001°)
1.62566103232819e+002	(-1.00792530968608e+002dB,1.79737730176849e+002°)	(-1.00792603165299e+002dB,-2.68026521983393e-001°)
1.66352754220534e+002	(-1.00392419290695e+002dB,1.79731620183895e+002°)	(-1.00392488630747e+002dB,-2.74225547961224e-001°)
1.70227607640475e+002	(-9.99923023005477e+001dB,1.79725367843881e+002°)	(-9.99923662997267e+001dB,-2.80575702965560e-001°)
1.74192717991216e+002	(-9.95921797551646e+001dB,1.79718969771895e+002°)	(-9.95922356665057e+001dB,-2.87089606359641e-001°)
1.78250187626749e+002	(-9.91920513962856e+001dB,1.79712422533922e+002°)	(-9.91920977801371e+001dB,-2.93783552046879e-001°)
1.82402167871181e+002	(-9.87919169485694e+001dB,1.79705722624188e+002°)	(-9.87919552666276e+001dB,-3.00662988677912e-001°)
1.86650860159398e+002	(-9.83917761198352e+001dB,1.79698866434612e+002°)	(-9.83918097546874e+001dB,-3.07718300568437e-001°)
1.90998517204287e+002	(-9.79916285999189e+001dB,1.79691850225019e+002°)	(-9.79916607550277e+001dB,-3.14939914065020e-001°)
1.95447444191162e+002	(-9.75914740650774e+001dB,1.79684670072986e+002°)	(-9.75915071559811e+001dB,-3.22326860333142e-001°)
1.99999999999999e+002	(-9.71913121906039e+001dB,1.79677321812790e+002°)	(-9.71913484433374e+001dB,-3.29882599773220e-001°)
2.04658598456150e+002	(-9.67911426834811e+001dB,1.79669801073432e+002°)	(-9.67911847581738e+001dB,-3.37607945919633e-001°)
2.09425709610179e+002	(-9.63909653138531e+001dB,1.79662103648362e+002°)	(-9.63910159329688e+001dB,-3.45496391714426e-001°)
2.14303861047521e+002	(-9.59907798528765e+001dB,1.79654226136954e+002°)	(-9.59908399914999e+001dB,-3.53539401874223e-001°)
2.19295639228636e+002	(-9.55905859070193e+001dB,1.79646165704203e+002°)	(-9.55906535907662e+001dB,-3.61741553688194e-001°)
2.24403690860392e+002	(-9.51903829096630e+001dB,1.79637918779844e+002°)	(-9.51904546921050e+001dB,-3.70121114772523e-001°)
2.29630724299376e+002	(-9.47901702901061e+001dB,1.79629480726490e+002°)	(-9.47902431521716e+001dB,-3.78694482257373e-001°)
2.34979510987905e+002	(-9.43899475452989e+001dB,1.79620846519517e+002°)	(-9.43900191447253e+001dB,-3.87470300040606e-001°)
2.40452886923482e+002	(-9.39897142027721e+001dB,1.79612011174743e+002°)	(-9.39897821723869e+001dB,-3.96454678608959e-001°)
2.46053754162476e+002	(-9.35894697815223e+001dB,1.79602969778414e+002°)	(-9.35895312569509e+001dB,-4.05658173105466e-001°)
2.51785082358833e+002	(-9.31892137754046e+001dB,1.79593717414709e+002°)	(-9.31892661932032e+001dB,-4.15098458876811e-001°)
2.57649910338626e+002	(-9.27889456479625e+001dB,1.79584249102198e+002°)	(-9.27889887469727e+001dB,-4.24790566771162e-001°)
2.63651347711281e+002	(-9.23886648309612e+001dB,1.79574559753746e+002°)	(-9.23887011784157e+001dB,-4.34733473921363e-001°)
2.69792576518330e+002	(-9.19883707239191e+001dB,1.79564644141898e+002°)	(-9.19884037750303e+001dB,-4.44917281202895e-001°)
2.76076852920576e+002	(-9.15880626950712e+001dB,1.79554496860731e+002°)	(-9.15880952825139e+001dB,-4.55338102453234e-001°)
2.82507508924550e+002	(-9.11877400871141e+001dB,1.79544112273757e+002°)	(-9.11877745418840e+001dB,-4.65999349369371e-001°)
2.89087954149185e+002	(-9.07874022356155e+001dB,1.79533484489799e+002°)	(-9.07874411165659e+001dB,-4.76905109860511e-001°)
2.95821677633641e+002	(-9.03870484989826e+001dB,1.79522607517218e+002°)	(-9.03870947906377e+001dB,-4.88053544612600e-001°)
3.02712249687241e+002	(-8.99866782506446e+001dB,1.79511475742292e+002°)	(-8.99867340876448e+001dB,-4.99436649334678e-001°)
3.09763323782495e+002	(-8.95862907669760e+001dB,1.79500084158739e+002°)	(-8.95863555063085e+001dB,-5.11053190675283e-001°)
3.16978638492222e+002	(-8.91858851423382e+001dB,1.79488427552544e+002°)	(-8.91859556382585e+001dB,-5.22918606550496e-001°)
3.24362019471785e+002	(-8.87854603866273e+001dB,1.79476499769538e+002°)	(-8.87855330262118e+001dB,-5.35053464980496e-001°)
3.31917381487511e+002	(-8.83850155281467e+001dB,1.79464294044604e+002°)	(-8.83850870957742e+001dB,-5.47472240549839e-001°)
3.39648730492348e+002	(-8.79845496074849e+001dB,1.79451803477946e+002°)	(-8.79846168264073e+001dB,-5.60186860715260e-001°)
3.47560165749874e+002	(-8.75840616413491e+001dB,1.79439021159935e+002°)	(-8.75841211065368e+001dB,-5.73214873442150e-001°)
3.55655882007783e+002	(-8.71835506011586e+001dB,1.79425940127991e+002°)	(-8.71836004522300e+001dB,-5.86577654887248e-001°)
3.63940171721995e+002	(-8.67830154047564e+001dB,1.79412553309501e+002°)	(-8.67830570390052e+001dB,-6.00283629513617e-001°)
3.72417427332572e+002	(-8.63824549122727e+001dB,1.79398853480282e+002°)	(-8.63824916406045e+001dB,-6.14324599213165e-001°)
3.81092143592648e+002	(-8.59818679233477e+001dB,1.79384833232740e+002°)	(-8.59819025737559e+001dB,-6.28693870410630e-001°)
3.89968919951608e+002	(-8.55812531739774e+001dB,1.79370484936536e+002°)	(-8.55812874314623e+001dB,-6.43394776602318e-001°)
3.99052462993775e+002	(-8.51806093352762e+001dB,1.79355800678400e+002°)	(-8.51806442335524e+001dB,-6.58436693839858e-001°)
4.08347588933904e+002	(-8.47799350195878e+001dB,1.79340772167444e+002°)	(-8.47799716037017e+001dB,-6.73830513887851e-001°)
4.17859226170806e+002	(-8.43792288076280e+001dB,1.79325390642780e+002°)	(-8.43792687049983e+001dB,-6.89585557942530e-001°)
4.27592417900445e+002	(-8.39784893082656e+001dB,1.79309647016068e+002°)	(-8.39785349606826e+001dB,-7.05705917401103e-001°)
4.37552324789909e+002	(-8.35777151918625e+001dB,1.79293532675129e+002°)	(-8.35777690345878e+001dB,-7.22188137319011e-001°)
4.47744227713666e+002	(-8.31769050275325e+001dB,1.79277040440695e+002°)	(-8.31769675541666e+001dB,-7.39029000158782e-001°)
4.58173530553553e+002	(-8.27760570192643e+001dB,1.79260163589233e+002°)	(-8.27761260874323e+001dB,-7.56239562119376e-001°)
4.68845763063983e+002	(-8.23751690882783e+001dB,1.79242893777954e+002°)	(-8.23752416038130e+001dB,-7.73841852028319e-001°)
4.79766583803896e+002	(-8.19742391439312e+001dB,1.79225221052133e+002°)	(-8.19743125273289e+001dB,-7.91854758829740e-001°)
4.90941783137004e+002	(-8.15732651419009e+001dB,1.79207134985845e+002°)	(-8.15733372772198e+001dB,-8.10290839522952e-001°)
5.02377286301914e+002	(-8.11722450108372e+001dB,1.79188625191886e+002°)	(-8.11723135223011e+001dB,-8.29161664193298e-001°)
5.14079156553771e+002	(-8.07711765941187e+001dB,1.79169681303556e+002°)	(-8.07712384801225e+001dB,-8.48484355696544e-001°)
5.26053598379074e+002	(-8.03700576241764e+001dB,1.79150292848005e+002°)	(-8.03701102707668e+001dB,-8.68283359904082e-001°)
5.38306960785381e+002	(-7.99688857114470e+001dB,1.79130449141288e+002°)	(-7.99689289769507e+001dB,-8.88579075988446e-001°)
5.50845740667631e+002	(-7.95676583373522e+001dB,1.79110139199994e+002°)	(-7.95676948324742e+001dB,-9.09375429662331e-001°)
5.63676586252888e+002	(-7.91663728493010e+001dB,1.79089351633980e+002°)	(-7.91664059178772e+001dB,-9.30669268274580e-001°)
5.76806300625319e+002	(-7.87650264638242e+001dB,1.79068074481459e+002°)	(-7.87650588550810e+001dB,-9.52464401950973e-001°)
5.90241845333275e+002	(-7.83636162975674e+001dB,1.79046294988841e+002°)	(-7.83636503992866e+001dB,-9.74771796934019e-001°)
6.03990344080401e+002	(-7.79621394598363e+001dB,1.79023999573047e+002°)	(-7.79621780176334e+001dB,-9.97602738248465e-001°)
6.18059086502716e+002	(-7.75605931814988e+001dB,1.79001174747029e+002°)	(-7.75606393383073e+001dB,-1.02096168025615e+000°)
6.32455532033673e+002	(-7.71589747109006e+001dB,1.78977809357866e+002°)	(-7.71590304837333e+001dB,-1.04484602409964e+000°)
6.47187313859254e+002	(-7.67572807677384e+001dB,1.78953894901346e+002°)	(-7.67573452662467e+001dB,-1.06926048848281e+000°)
6.62262242965179e+002	(-7.63555073036980e+001dB,1.78929421434342e+002°)	(-7.63555774768388e+001dB,-1.09422717765833e+000°)
6.77688312278402e+002	(-7.59536500109080e+001dB,1.78904375219679e+002°)	(-7.59537227473005e+001dB,-1.11977356938175e+000°)
6.93473700905060e+002	(-7.55517046800917e+001dB,1.78878740617483e+002°)	(-7.55517775549845e+001dB,-1.14592109722256e+000°)
7.09626778467148e+002	(-7.51496671257469e+001dB,1.78852501884718e+002°)	(-7.51497378743192e+001dB,-1.17268666686811e+000°)
7.26156109540200e+002	(-7.47475330385097e+001dB,1.78825643518480e+002°)	(-7.47475988692155e+001dB,-1.20008931567375e+000°)
7.43070458194342e+002	(-7.43452979082891e+001dB,1.78798150052774e+002°)	(-7.43453557285366e+001dB,-1.22815561950356e+000°)
7.60378792641119e+002	(-7.39429569952933e+001dB,1.78770005844308e+002°)	(-7.39430052053468e+001dB,-1.25691524991142e+000°)
7.78090289988558e+002	(-7.35405053178994e+001dB,1.78741194938528e+002°)	(-7.35405453102990e+001dB,-1.28638560400544e+000°)
7.96214341106991e+002	(-7.31379376441537e+001dB,1.78711700990068e+002°)	(-7.31379726061844e+001dB,-1.31657013477145e+000°)
